<Qucs Dataset 0.0.18>
<indep time 100>
  +0.00000000000e+00
  +5.05050505051e-04
  +1.01010101010e-03
  +1.51515151515e-03
  +2.02020202020e-03
  +2.52525252525e-03
  +3.03030303030e-03
  +3.53535353535e-03
  +4.04040404040e-03
  +4.54545454545e-03
  +5.05050505051e-03
  +5.55555555556e-03
  +6.06060606061e-03
  +6.56565656566e-03
  +7.07070707071e-03
  +7.57575757576e-03
  +8.08080808081e-03
  +8.58585858586e-03
  +9.09090909091e-03
  +9.59595959596e-03
  +1.01010101010e-02
  +1.06060606061e-02
  +1.11111111111e-02
  +1.16161616162e-02
  +1.21212121212e-02
  +1.26262626263e-02
  +1.31313131313e-02
  +1.36363636364e-02
  +1.41414141414e-02
  +1.46464646465e-02
  +1.51515151515e-02
  +1.56565656566e-02
  +1.61616161616e-02
  +1.66666666667e-02
  +1.71717171717e-02
  +1.76767676768e-02
  +1.81818181818e-02
  +1.86868686869e-02
  +1.91919191919e-02
  +1.96969696970e-02
  +2.02020202020e-02
  +2.07070707071e-02
  +2.12121212121e-02
  +2.17171717172e-02
  +2.22222222222e-02
  +2.27272727273e-02
  +2.32323232323e-02
  +2.37373737374e-02
  +2.42424242424e-02
  +2.47474747475e-02
  +2.52525252525e-02
  +2.57575757576e-02
  +2.62626262626e-02
  +2.67676767677e-02
  +2.72727272727e-02
  +2.77777777778e-02
  +2.82828282828e-02
  +2.87878787879e-02
  +2.92929292929e-02
  +2.97979797980e-02
  +3.03030303030e-02
  +3.08080808081e-02
  +3.13131313131e-02
  +3.18181818182e-02
  +3.23232323232e-02
  +3.28282828283e-02
  +3.33333333333e-02
  +3.38383838384e-02
  +3.43434343434e-02
  +3.48484848485e-02
  +3.53535353535e-02
  +3.58585858586e-02
  +3.63636363636e-02
  +3.68686868687e-02
  +3.73737373737e-02
  +3.78787878788e-02
  +3.83838383838e-02
  +3.88888888889e-02
  +3.93939393939e-02
  +3.98989898990e-02
  +4.04040404040e-02
  +4.09090909091e-02
  +4.14141414141e-02
  +4.19191919192e-02
  +4.24242424242e-02
  +4.29292929293e-02
  +4.34343434343e-02
  +4.39393939394e-02
  +4.44444444444e-02
  +4.49494949495e-02
  +4.54545454545e-02
  +4.59595959596e-02
  +4.64646464646e-02
  +4.69696969697e-02
  +4.74747474747e-02
  +4.79797979798e-02
  +4.84848484848e-02
  +4.89898989899e-02
  +4.94949494949e-02
  +5.00000000000e-02
</indep>
<dep V2.It time>
  -4.25531503355e-03
  -1.83415821225e-03
  -1.71918252537e-03
  -1.64512680695e-03
  -1.61925573945e-03
  -1.64415274239e-03
  -1.71733165671e-03
  -1.83147129505e-03
  -1.97520331758e-03
  -2.13411343616e-03
  -2.29247574427e-03
  -2.43430237493e-03
  -2.54552586200e-03
  -2.61503094760e-03
  -2.63586019360e-03
  -2.60593764472e-03
  -2.52825704791e-03
  -2.41056157807e-03
  -2.26462389199e-03
  -2.10499504058e-03
  -1.94769106761e-03
  -1.80830763014e-03
  -1.70081119342e-03
  -1.63593999837e-03
  -1.62017863757e-03
  -1.65509607844e-03
  -1.73720703891e-03
  -1.85830149696e-03
  -2.00629448198e-03
  -2.16640671389e-03
  -2.32264974307e-03
  -2.45940339359e-03
  -2.56307162705e-03
  -2.62321334087e-03
  -2.63391461340e-03
  -2.59404601755e-03
  -2.50761436201e-03
  -2.38316843145e-03
  -2.23326609318e-03
  -2.07287735576e-03
  -1.91782243012e-03
  -1.78385880203e-03
  -1.68414609548e-03
  -1.62874302164e-03
  -1.62314937570e-03
  -1.66793646380e-03
  -1.75861788798e-03
  -1.88618466674e-03
  -2.03784349749e-03
  -2.19847259503e-03
  -2.35203046273e-03
  -2.48316965221e-03
  -2.57882661482e-03
  -2.62943123633e-03
  -2.62990332278e-03
  -2.58024882832e-03
  -2.48539071493e-03
  -2.35484210605e-03
  -2.20156435736e-03
  -2.04090679212e-03
  -1.88894584487e-03
  -1.76079764472e-03
  -1.66927900912e-03
  -1.62353841139e-03
  -1.62814254478e-03
  -1.68262757340e-03
  -1.78159896687e-03
  -1.91507994204e-03
  -2.06974090747e-03
  -2.23028602483e-03
  -2.38054398786e-03
  -2.50553569622e-03
  -2.59279358293e-03
  -2.63360422737e-03
  -2.62389236979e-03
  -2.56462781460e-03
  -2.46172858777e-03
  -2.32546997609e-03
  -2.16945845990e-03
  -2.00927300045e-03
  -1.86095604031e-03
  -1.73920900626e-03
  -1.65625261270e-03
  -1.62039132634e-03
  -1.63515170671e-03
  -1.69913992790e-03
  -1.80592194066e-03
  -1.94481245801e-03
  -2.10196176658e-03
  -2.26167720080e-03
  -2.40800993446e-03
  -2.52634750788e-03
  -2.60487299554e-03
  -2.63574501776e-03
  -2.61591616083e-03
  -2.54730769454e-03
  -2.43678878956e-03
  -2.29542988853e-03
  -2.13727783532e-03
  -1.97815531299e-03
</dep>
<dep V1.It time>
  +4.25531091816e-03
  -5.87002724439e-04
  -8.16954098191e-04
  -9.65065535034e-04
  -1.01680767003e-03
  -9.67013664155e-04
  -8.20655835516e-04
  -5.92376558829e-04
  -3.04912513775e-04
  +1.29077233897e-05
  +3.29632339600e-04
  +6.13285600931e-04
  +8.35732575060e-04
  +9.74742746270e-04
  +1.01640123827e-03
  +9.56556140506e-04
  +8.01194946890e-04
  +5.65804007202e-04
  +2.73928635035e-04
  -4.53290677765e-05
  -3.59937013724e-04
  -6.38703888648e-04
  -8.53696762105e-04
  -9.83439152203e-04
  -1.01496187380e-03
  -9.45126992058e-04
  -7.80905071117e-04
  -5.38716155023e-04
  -2.42730184980e-04
  +7.74942788345e-05
  +3.89980337202e-04
  +6.63487638236e-04
  +8.70824105159e-04
  +9.91107532813e-04
  +1.01251007786e-03
  +9.32772886168e-04
  +7.59909575074e-04
  +5.11017713971e-04
  +2.11213037417e-04
  -1.09564437418e-04
  -4.19674288695e-04
  -6.87601544874e-04
  -8.87026957986e-04
  -9.97833105656e-04
  -1.00902039753e-03
  -9.19446221328e-04
  -7.38083372970e-04
  -4.82949815465e-04
  -1.79632153965e-04
  +1.41626041129e-04
  +4.48741776522e-04
  +7.11020155491e-04
  +9.02334080705e-04
  +1.00354332373e-03
  +1.00448749662e-03
  +9.05178507698e-04
  +7.15462280931e-04
  +4.54365063173e-04
  +1.47809565789e-04
  -1.73505564694e-04
  -4.77427459197e-04
  -7.33723859500e-04
  -9.16761130691e-04
  -1.00824232616e-03
  -9.99034059384e-04
  -8.90064002127e-04
  -6.92121215203e-04
  -4.25159264855e-04
  -1.15837333997e-04
  +2.05252900721e-04
  +5.05768826783e-04
  +7.55752243495e-04
  +9.30268016930e-04
  +1.01188930580e-03
  +9.92465590647e-04
  +8.73936480254e-04
  +6.68138026612e-04
  +3.95620803243e-04
  +8.35977708656e-05
  -2.36773148029e-04
  -5.33407068310e-04
  -7.76901136418e-04
  -9.42813923533e-04
  -1.01453649626e-03
  -9.85015735516e-04
  -8.57039293137e-04
  -6.43475267624e-04
  -3.65694232926e-04
  -5.13956157801e-05
  +2.68035252674e-04
  +5.60700719983e-04
  +7.97375866831e-04
  +9.54426842137e-04
  +1.01617088659e-03
  +9.76513172730e-04
  +8.39296240147e-04
  +6.18258430193e-04
  +3.35540628126e-04
  +1.92365216972e-05
  -2.99008522955e-04
</dep>
<dep Vout.Vt time>
  +1.93423223553e-06
  +1.13794564024e+00
  +1.19198421307e+00
  +1.22679040073e+00
  +1.23894980246e+00
  +1.22724821108e+00
  +1.19285412135e+00
  +1.13920849132e+00
  +1.07165444074e+00
  +9.96966685003e-01
  +9.22536400194e-01
  +8.55877883781e-01
  +8.03602844861e-01
  +7.70935454626e-01
  +7.61145709006e-01
  +7.75209306981e-01
  +8.11719187481e-01
  +8.67036058308e-01
  +9.35626770767e-01
  +1.01065233093e+00
  +1.08458519823e+00
  +1.15009541383e+00
  +1.20061873909e+00
  +1.23110820077e+00
  +1.23851604034e+00
  +1.22210484313e+00
  +1.18351269171e+00
  +1.12659829643e+00
  +1.05704159347e+00
  +9.81788844474e-01
  +9.08354620758e-01
  +8.44080405015e-01
  +7.95356335288e-01
  +7.67089729789e-01
  +7.62060131703e-01
  +7.80798371750e-01
  +8.21421249858e-01
  +8.79910837217e-01
  +9.50364936207e-01
  +1.02574764279e+00
  +1.09862345784e+00
  +1.16158636305e+00
  +1.20845133513e+00
  +1.23449077983e+00
  +1.23711979342e+00
  +1.21606986201e+00
  +1.17344959265e+00
  +1.11349320663e+00
  +1.04221355618e+00
  +9.66717880335e-01
  +8.94545682517e-01
  +8.32910263460e-01
  +7.87951491034e-01
  +7.64167318924e-01
  +7.63945438295e-01
  +7.87283050691e-01
  +8.31866363981e-01
  +8.93224210154e-01
  +9.65264752040e-01
  +1.04077380770e+00
  +1.11219545291e+00
  +1.17242510698e+00
  +1.21543886571e+00
  +1.23693694665e+00
  +1.23477300396e+00
  +1.20916504050e+00
  +1.16264848557e+00
  +1.09991242724e+00
  +1.02722177349e+00
  +9.51765568331e-01
  +8.81144325706e-01
  +8.22398222779e-01
  +7.81387016022e-01
  +7.62206013138e-01
  +7.66770586198e-01
  +7.94624927140e-01
  +8.42987563746e-01
  +9.07029111238e-01
  +9.80354523847e-01
  +1.05564168979e+00
  +1.12535066105e+00
  +1.18257176706e+00
  +1.22156127203e+00
  +1.23841607662e+00
  +1.23147869785e+00
  +1.20140423389e+00
  +1.15121668789e+00
  +1.08593814474e+00
  +1.01207796971e+00
  +9.37011715622e-01
  +8.68235330804e-01
  +8.12616671295e-01
  +7.75709692098e-01
  +7.61199841651e-01
  +7.70519404409e-01
  +8.02765383565e-01
  +8.54709268905e-01
  +9.21147952390e-01
  +9.95479417401e-01
  +1.07026700289e+00
</dep>
<dep _net0.Vt time>
  +2.00000000000e+00
  +2.00000000000e+00
  +2.00000000000e+00
  +2.00000000000e+00
  +2.00000000000e+00
  +2.00000000000e+00
  +2.00000000000e+00
  +2.00000000000e+00
  +2.00000000000e+00
  +2.00000000000e+00
  +2.00000000000e+00
  +2.00000000000e+00
  +2.00000000000e+00
  +2.00000000000e+00
  +2.00000000000e+00
  +2.00000000000e+00
  +2.00000000000e+00
  +2.00000000000e+00
  +2.00000000000e+00
  +2.00000000000e+00
  +2.00000000000e+00
  +2.00000000000e+00
  +2.00000000000e+00
  +2.00000000000e+00
  +2.00000000000e+00
  +2.00000000000e+00
  +2.00000000000e+00
  +2.00000000000e+00
  +2.00000000000e+00
  +2.00000000000e+00
  +2.00000000000e+00
  +2.00000000000e+00
  +2.00000000000e+00
  +2.00000000000e+00
  +2.00000000000e+00
  +2.00000000000e+00
  +2.00000000000e+00
  +2.00000000000e+00
  +2.00000000000e+00
  +2.00000000000e+00
  +2.00000000000e+00
  +2.00000000000e+00
  +2.00000000000e+00
  +2.00000000000e+00
  +2.00000000000e+00
  +2.00000000000e+00
  +2.00000000000e+00
  +2.00000000000e+00
  +2.00000000000e+00
  +2.00000000000e+00
  +2.00000000000e+00
  +2.00000000000e+00
  +2.00000000000e+00
  +2.00000000000e+00
  +2.00000000000e+00
  +2.00000000000e+00
  +2.00000000000e+00
  +2.00000000000e+00
  +2.00000000000e+00
  +2.00000000000e+00
  +2.00000000000e+00
  +2.00000000000e+00
  +2.00000000000e+00
  +2.00000000000e+00
  +2.00000000000e+00
  +2.00000000000e+00
  +2.00000000000e+00
  +2.00000000000e+00
  +2.00000000000e+00
  +2.00000000000e+00
  +2.00000000000e+00
  +2.00000000000e+00
  +2.00000000000e+00
  +2.00000000000e+00
  +2.00000000000e+00
  +2.00000000000e+00
  +2.00000000000e+00
  +2.00000000000e+00
  +2.00000000000e+00
  +2.00000000000e+00
  +2.00000000000e+00
  +2.00000000000e+00
  +2.00000000000e+00
  +2.00000000000e+00
  +2.00000000000e+00
  +2.00000000000e+00
  +2.00000000000e+00
  +2.00000000000e+00
  +2.00000000000e+00
  +2.00000000000e+00
  +2.00000000000e+00
  +2.00000000000e+00
  +2.00000000000e+00
  +2.00000000000e+00
  +2.00000000000e+00
  +2.00000000000e+00
  +2.00000000000e+00
  +2.00000000000e+00
  +2.00000000000e+00
  +2.00000000000e+00
</dep>
<dep Vin.Vt time>
  +0.00000000000e+00
  +7.80083614246e-02
  +1.48226982264e-01
  +2.03643988013e-01
  +2.38725560361e-01
  +2.49968531918e-01
  +2.36250204679e-01
  +1.98940460133e-01
  +1.41764965966e-01
  +7.04331392104e-02
  -7.93198337450e-03
  -8.55050358314e-02
  -1.54539746555e-01
  -2.08142463659e-01
  -2.40960539640e-01
  -2.49716834796e-01
  -2.33536965066e-01
  -1.94036616073e-01
  -1.35160204364e-01
  -6.27869967953e-02
  +1.58559799141e-02
  +9.29156139151e-02
  +1.60696902422e-01
  +2.12431357487e-01
  +2.42952892081e-01
  +2.49213693988e-01
  +2.30588573526e-01
  +1.88937393589e-01
  +1.28419347893e-01
  +5.50776331966e-02
  -2.37640108260e-02
  -1.00232633852e-01
  -1.66692250129e-01
  -2.16506350946e-01
  -2.44700611554e-01
  -2.48459616115e-01
  -2.27407998839e-01
  -1.83647927164e-01
  -1.21549184025e-01
  -4.73128110901e-02
  +3.16481133934e-02
  +1.07448728022e-01
  +1.72519752871e-01
  +2.20363340862e-01
  +2.46201938253e-01
  +2.47455360470e-01
  +2.23998443573e-01
  +1.78173542845e-01
  +1.14556630432e-01
  +3.95003489933e-02
  -3.95003489933e-02
  -1.14556630432e-01
  -1.78173542845e-01
  -2.23998443573e-01
  -2.47455360470e-01
  -2.46201938253e-01
  -2.20363340862e-01
  -1.72519752871e-01
  -1.07448728022e-01
  -3.16481133934e-02
  +4.73128110901e-02
  +1.21549184025e-01
  +1.83647927164e-01
  +2.27407998839e-01
  +2.48459616115e-01
  +2.44700611554e-01
  +2.16506350946e-01
  +1.66692250129e-01
  +1.00232633852e-01
  +2.37640108260e-02
  -5.50776331966e-02
  -1.28419347893e-01
  -1.88937393589e-01
  -2.30588573526e-01
  -2.49213693988e-01
  -2.42952892081e-01
  -2.12431357487e-01
  -1.60696902422e-01
  -9.29156139151e-02
  -1.58559799142e-02
  +6.27869967952e-02
  +1.35160204364e-01
  +1.94036616073e-01
  +2.33536965066e-01
  +2.49716834796e-01
  +2.40960539640e-01
  +2.08142463659e-01
  +1.54539746555e-01
  +8.55050358314e-02
  +7.93198337451e-03
  -7.04331392104e-02
  -1.41764965966e-01
  -1.98940460133e-01
  -2.36250204679e-01
  -2.49968531918e-01
  -2.38725560361e-01
  -2.03643988013e-01
  -1.48226982264e-01
  -7.80083614246e-02
  +3.33326762397e-14
</dep>
