<Qucs Dataset 0.0.18>
<indep time 100>
  +0.00000000000e+00
  +5.05050505051e-04
  +1.01010101010e-03
  +1.51515151515e-03
  +2.02020202020e-03
  +2.52525252525e-03
  +3.03030303030e-03
  +3.53535353535e-03
  +4.04040404040e-03
  +4.54545454545e-03
  +5.05050505051e-03
  +5.55555555556e-03
  +6.06060606061e-03
  +6.56565656566e-03
  +7.07070707071e-03
  +7.57575757576e-03
  +8.08080808081e-03
  +8.58585858586e-03
  +9.09090909091e-03
  +9.59595959596e-03
  +1.01010101010e-02
  +1.06060606061e-02
  +1.11111111111e-02
  +1.16161616162e-02
  +1.21212121212e-02
  +1.26262626263e-02
  +1.31313131313e-02
  +1.36363636364e-02
  +1.41414141414e-02
  +1.46464646465e-02
  +1.51515151515e-02
  +1.56565656566e-02
  +1.61616161616e-02
  +1.66666666667e-02
  +1.71717171717e-02
  +1.76767676768e-02
  +1.81818181818e-02
  +1.86868686869e-02
  +1.91919191919e-02
  +1.96969696970e-02
  +2.02020202020e-02
  +2.07070707071e-02
  +2.12121212121e-02
  +2.17171717172e-02
  +2.22222222222e-02
  +2.27272727273e-02
  +2.32323232323e-02
  +2.37373737374e-02
  +2.42424242424e-02
  +2.47474747475e-02
  +2.52525252525e-02
  +2.57575757576e-02
  +2.62626262626e-02
  +2.67676767677e-02
  +2.72727272727e-02
  +2.77777777778e-02
  +2.82828282828e-02
  +2.87878787879e-02
  +2.92929292929e-02
  +2.97979797980e-02
  +3.03030303030e-02
  +3.08080808081e-02
  +3.13131313131e-02
  +3.18181818182e-02
  +3.23232323232e-02
  +3.28282828283e-02
  +3.33333333333e-02
  +3.38383838384e-02
  +3.43434343434e-02
  +3.48484848485e-02
  +3.53535353535e-02
  +3.58585858586e-02
  +3.63636363636e-02
  +3.68686868687e-02
  +3.73737373737e-02
  +3.78787878788e-02
  +3.83838383838e-02
  +3.88888888889e-02
  +3.93939393939e-02
  +3.98989898990e-02
  +4.04040404040e-02
  +4.09090909091e-02
  +4.14141414141e-02
  +4.19191919192e-02
  +4.24242424242e-02
  +4.29292929293e-02
  +4.34343434343e-02
  +4.39393939394e-02
  +4.44444444444e-02
  +4.49494949495e-02
  +4.54545454545e-02
  +4.59595959596e-02
  +4.64646464646e-02
  +4.69696969697e-02
  +4.74747474747e-02
  +4.79797979798e-02
  +4.84848484848e-02
  +4.89898989899e-02
  +4.94949494949e-02
  +5.00000000000e-02
</indep>
<dep V1.It time>
  -6.22421378775e-11
  -7.37435220982e-11
  -5.91531447144e-11
  -4.17468156837e-11
  -2.12677914080e-11
  +7.23369427140e-13
  +2.24578265306e-11
  +4.20120440737e-11
  +5.75659253317e-11
  +6.75847278375e-11
  +7.09861416710e-11
  +6.74522723277e-11
  +5.66971857969e-11
  +4.03811221166e-11
  +1.94270988606e-11
  -3.24366280750e-12
  -2.59278840440e-11
  -4.54730964365e-11
  -6.04019772230e-11
  -6.90609399106e-11
  -7.07010909837e-11
  -6.55241891322e-11
  -5.35760546022e-11
  -3.67182725701e-11
  -1.63928235671e-11
  +5.46942782245e-12
  +2.68305983175e-11
  +4.57006054817e-11
  +6.02447571845e-11
  +6.90087759035e-11
  +7.07831521938e-11
  +6.57007627411e-11
  +5.38130337348e-11
  +3.65073329842e-11
  +1.51390152409e-11
  -7.83972094175e-12
  -2.99668240032e-11
  -4.88899692514e-11
  -6.26613670176e-11
  -6.99529169986e-11
  -7.03774352129e-11
  -6.36469806993e-11
  -5.07676228084e-11
  -3.30726050598e-11
  -1.20606432991e-11
  +9.86183774082e-12
  +3.08764528030e-11
  +4.90067490674e-11
  +6.24965513289e-11
  +6.99630159802e-11
  +7.03161735310e-11
  +6.40272184873e-11
  +5.07107886586e-11
  +3.24811830388e-11
  +1.03805626409e-11
  -1.24057246090e-11
  -3.40693327624e-11
  -5.21011271111e-11
  -6.46601933087e-11
  -7.05598133287e-11
  -6.93463579111e-11
  -6.13024315190e-11
  -4.73444241041e-11
  -2.88800790613e-11
  -7.70400833170e-12
  +1.42055973966e-11
  +3.45717789759e-11
  +5.19052100231e-11
  +6.45070567358e-11
  +7.04236082927e-11
  +6.98054594842e-11
  +6.18979040091e-11
  +4.73812468347e-11
  +2.83150186432e-11
  +6.00901421752e-12
  -1.69241005125e-11
  -3.80335893862e-11
  -5.50979072844e-11
  -6.63944290236e-11
  -7.11056876037e-11
  -6.82627647296e-11
  -5.91796651941e-11
  -4.41927321705e-11
  -2.48048989488e-11
  -3.53999327251e-12
  +1.84942409385e-11
  +3.85845294665e-11
  +5.48216518220e-11
  +6.62766432694e-11
  +7.10742100578e-11
  +6.88020289709e-11
  +5.95418819819e-11
  +4.41105988008e-11
  +2.40324957813e-11
  +1.39968962818e-12
  -2.13709768775e-11
  -4.18321356657e-11
  -5.80868578531e-11
  -6.78654620035e-11
  -7.09321543079e-11
</dep>
<dep V2.It time>
  +5.54906721205e-11
  +6.10469991149e-11
  +5.21524441466e-11
  +3.76417614029e-11
  +1.93940304199e-11
  -8.55369720018e-13
  -2.09925463713e-11
  -3.88983378318e-11
  -5.27314371937e-11
  -6.11279140076e-11
  -6.33303623193e-11
  -5.90304012651e-11
  -4.93365002870e-11
  -3.45153425453e-11
  -1.67625340555e-11
  +2.93499921657e-12
  +2.19970402927e-11
  +3.93259994234e-11
  +5.27246809076e-11
  +6.10281615730e-11
  +6.33375548880e-11
  +5.91407778869e-11
  +4.92664361295e-11
  +3.41242927507e-11
  +1.54167426655e-11
  -4.90701644472e-12
  -2.47010268861e-11
  -4.18943055658e-11
  -5.47071339487e-11
  -6.18936395100e-11
  -6.29930516078e-11
  -5.77081241049e-11
  -4.67554735342e-11
  -3.11252597738e-11
  -1.27338507801e-11
  +6.87247608932e-12
  +2.58401119282e-11
  +4.23653677271e-11
  +5.48416763789e-11
  +6.20023931563e-11
  +6.28390868621e-11
  +5.75670090519e-11
  +4.63995546960e-11
  +3.04069698830e-11
  +1.14213507711e-11
  -8.96649231100e-12
  -2.83970489679e-11
  -4.48342666613e-11
  -5.66020787656e-11
  -6.25641656975e-11
  -6.24240999682e-11
  -5.57144526422e-11
  -4.39898289585e-11
  -2.76268693088e-11
  -9.05289452099e-12
  +1.07797014576e-11
  +2.93966448090e-11
  +4.52310428089e-11
  +5.67309078364e-11
  +6.27151348007e-11
  +6.24945395778e-11
  +5.59867055882e-11
  +4.37558285886e-11
  +2.69741936212e-11
  +7.37265217170e-12
  -1.29997010218e-11
  -3.21932694438e-11
  -4.78159413600e-11
  -5.82846386686e-11
  -6.32122295706e-11
  -6.13982648379e-11
  -5.37241391345e-11
  -4.10384060434e-11
  -2.40305700066e-11
  -4.93055800915e-12
  +1.46417112526e-11
  +3.28385976147e-11
  +4.79187425802e-11
  +5.83930974693e-11
  +6.29642827614e-11
  +6.16842039222e-11
  +5.37672345161e-11
  +4.05110680943e-11
  +2.32270800139e-11
  +3.07936212453e-12
  -1.69708081303e-11
  -3.54339133655e-11
  -5.03902376374e-11
  -5.97294706736e-11
  -6.32069834028e-11
  -6.03440570213e-11
  -5.15428130213e-11
  -3.77480799008e-11
  -2.03386128337e-11
  -9.92433671772e-13
  +1.84575171454e-11
  +3.61616701608e-11
  +5.02199110405e-11
  +5.98349018348e-11
  +6.33881270508e-11
</dep>
<dep V4.It time>
  +2.08326579762e-04
  +1.28791711201e-04
  +2.45141601069e-05
  -3.19346699388e-05
  -6.13574687945e-05
  -7.33509117907e-05
  -7.26611417492e-05
  -6.21747742419e-05
  -4.42750760529e-05
  -2.13829757931e-05
  +3.91520418186e-06
  +2.89515928746e-05
  +5.11568740535e-05
  +6.82827781847e-05
  +7.86038063067e-05
  +8.10821247893e-05
  +7.54668410525e-05
  +6.23169073450e-05
  +4.29449245128e-05
  +1.92848929187e-05
  -6.30072712042e-06
  -3.12564386344e-05
  -5.30919269914e-05
  -6.96254367143e-05
  -7.92062524484e-05
  -8.08775750375e-05
  -7.44727317478e-05
  -6.06313633132e-05
  -4.07352622257e-05
  -1.67715447879e-05
  +8.86743992971e-06
  +3.36198279330e-05
  +5.50158793779e-05
  +7.09182139277e-05
  +7.97384851415e-05
  +8.05962620811e-05
  +7.34059365409e-05
  +5.88854510077e-05
  +3.84847919254e-05
  +1.42411256331e-05
  -1.14249813762e-05
  -3.59498571010e-05
  -5.68848718055e-05
  -7.21394891725e-05
  -8.01904461810e-05
  -8.02336915887e-05
  -7.22649873951e-05
  -5.70800618015e-05
  -3.61952482187e-05
  -1.16960635520e-05
  +1.39711251478e-05
  +3.82426887383e-05
  +5.86956982046e-05
  +7.32880738232e-05
  +8.05615901170e-05
  +7.97904066050e-05
  +7.10515078460e-05
  +5.52176005065e-05
  +3.38697772422e-05
  +9.13979434421e-06
  -1.65029080261e-05
  -4.04976378749e-05
  -6.04484064553e-05
  -7.43628284855e-05
  -8.08516246437e-05
  -7.92667941355e-05
  -6.97664556252e-05
  -5.32994094539e-05
  -3.15100156036e-05
  -6.57412066449e-06
  +1.90183775207e-05
  +4.27115129165e-05
  +6.21398312076e-05
  +7.53627694602e-05
  +8.10603053550e-05
  +7.86632504445e-05
  +6.84110890185e-05
  +5.13275638566e-05
  +2.91185227607e-05
  +4.00183126876e-06
  -2.15144729915e-05
  -4.48821255399e-05
  -6.37678912896e-05
  -7.62864015668e-05
  -8.11871806402e-05
  -7.79805334140e-05
  -6.69869509424e-05
  -4.93041505411e-05
  -2.66980567498e-05
  -1.42639133303e-06
  +2.39880300480e-05
  +4.70071777416e-05
  +6.53323388737e-05
  +7.71335800915e-05
  +8.12324445767e-05
  +7.72196235503e-05
  +6.54956280951e-05
  +4.72314451962e-05
  +2.42505304237e-05
  -1.15179152903e-06
</dep>
<dep V3.It time>
  -1.24999997633e-04
  -1.09837999561e-04
  -1.01826463638e-04
  -9.74980180873e-05
  -9.52515518062e-05
  -9.43473510711e-05
  -9.44186093747e-05
  -9.52415021064e-05
  -9.66311006199e-05
  -9.83999220380e-05
  -1.00348235506e-04
  -1.02270576471e-04
  -1.03969703644e-04
  -1.05273529315e-04
  -1.06050688686e-04
  -1.06223022724e-04
  -1.05773060037e-04
  -1.04745605547e-04
  -1.03243204316e-04
  -1.01415853288e-04
  -9.94460141872e-05
  -9.75304255943e-05
  -9.58602644886e-05
  -9.46023925973e-05
  -9.38824055341e-05
  -9.37721991627e-05
  -9.42827630325e-05
  -9.53631197874e-05
  -9.69053966781e-05
  -9.87555683711e-05
  -1.00728915444e-04
  -1.02628316716e-04
  -1.04264162105e-04
  -1.05473101486e-04
  -1.06134373334e-04
  -1.06181963890e-04
  -1.05611125844e-04
  -1.04478856390e-04
  -1.02898221770e-04
  -1.01027060787e-04
  -9.90521994421e-05
  -9.71708906442e-05
  -9.55709743088e-05
  -9.44122144023e-05
  -9.38103206346e-05
  -9.38254023040e-05
  -9.44559494393e-05
  -9.56389969023e-05
  -9.72564081652e-05
  -9.91466721635e-05
  -1.01121031237e-04
  -1.02982300666e-04
  -1.04544672596e-04
  -1.05652135568e-04
  -1.06194046073e-04
  -1.06116316590e-04
  -1.05426708075e-04
  -1.04194085339e-04
  -1.02541534447e-04
  -1.00634075385e-04
  -9.86621825443e-05
  -9.68227644371e-05
  -9.52994945074e-05
  -9.42445037912e-05
  -9.37631191410e-05
  -9.39034201329e-05
  -9.46513989403e-05
  -9.59323632046e-05
  -9.76183928235e-05
  -9.95411278192e-05
  -1.01508582078e-04
  -1.03324250042e-04
  -1.04806873235e-04
  -1.05808365905e-04
  -1.06228734007e-04
  -1.06025995620e-04
  -1.05220400894e-04
  -1.03892393466e-04
  -1.02174581171e-04
  -1.00238506987e-04
  -9.82774998837e-05
  -9.64873959331e-05
  -9.50469400634e-05
  -9.40999422236e-05
  -9.37409943209e-05
  -9.40059523939e-05
  -9.48683459923e-05
  -9.62420593896e-05
  -9.79899158118e-05
  -9.99373531348e-05
  -1.01889943682e-04
  -1.03652699730e-04
  -1.05049592552e-04
  -1.05941129727e-04
  -1.06238283480e-04
  -1.05911380293e-04
  -1.04993059383e-04
  -1.03575024545e-04
  -1.01798857004e-04
  -9.98419616034e-05
</dep>
<dep V5.It time>
  -6.30439588237e-06
  -8.89837394791e-08
  -8.93938222354e-08
  -8.99146545098e-08
  -9.05090865170e-08
  -9.11184611655e-08
  -9.16904746747e-08
  -9.21676459442e-08
  -9.25031691701e-08
  -9.26638804900e-08
  -9.26338920653e-08
  -9.24150399203e-08
  -9.20343923233e-08
  -9.15229786411e-08
  -9.09349361228e-08
  -9.03289832568e-08
  -8.97656314864e-08
  -8.93052660253e-08
  -8.89868959976e-08
  -8.88455207173e-08
  -8.88948833055e-08
  -8.91371272312e-08
  -8.95280191512e-08
  -9.00482191363e-08
  -9.06394865482e-08
  -9.12410912760e-08
  -9.17942825456e-08
  -9.22453180541e-08
  -9.25509604823e-08
  -9.26642501672e-08
  -9.26032768870e-08
  -9.23435611639e-08
  -9.19316905085e-08
  -9.14071860789e-08
  -9.08123672524e-08
  -9.02119650637e-08
  -8.96666001464e-08
  -8.92300387519e-08
  -8.89458180169e-08
  -8.88423195457e-08
  -8.89240028558e-08
  -8.91939336137e-08
  -8.96202878694e-08
  -9.01600133523e-08
  -9.07594191932e-08
  -9.13581700186e-08
  -9.18971987165e-08
  -9.23222314012e-08
  -9.25908252602e-08
  -9.26763127496e-08
  -9.25675826396e-08
  -9.22763279739e-08
  -9.18408730180e-08
  -9.12914270919e-08
  -9.06906955694e-08
  -9.00956021441e-08
  -8.95675527458e-08
  -8.91579854447e-08
  -8.89076704076e-08
  -8.88418869707e-08
  -8.89658884631e-08
  -8.92693209270e-08
  -8.97247538259e-08
  -9.02776756300e-08
  -9.08813696053e-08
  -9.14709731008e-08
  -9.19907549521e-08
  -9.23897376477e-08
  -9.26228598183e-08
  -9.26698834187e-08
  -9.25251375448e-08
  -9.22016842608e-08
  -9.17381327450e-08
  -9.11750471150e-08
  -9.05692236241e-08
  -8.99832877289e-08
  -8.94743131761e-08
  -8.90932865379e-08
  -8.88774058813e-08
  -8.88483212949e-08
  -8.90110484477e-08
  -8.93548122907e-08
  -8.98252691716e-08
  -9.03955698496e-08
  -9.10025778242e-08
  -9.15831319988e-08
  -9.20832451557e-08
  -9.24470163767e-08
  -9.26441518899e-08
  -9.26564690576e-08
  -9.24754259368e-08
  -9.21223622668e-08
  -9.16328137802e-08
  -9.10556701198e-08
  -9.04485636040e-08
  -8.98721185427e-08
  -8.93872230031e-08
  -8.90346289350e-08
  -8.88543226898e-08
  -8.88693292409e-08
</dep>
<dep _net1.Vt time>
  +1.00000000000e+00
  +1.00000000000e+00
  +1.00000000000e+00
  +1.00000000000e+00
  +1.00000000000e+00
  +1.00000000000e+00
  +1.00000000000e+00
  +1.00000000000e+00
  +1.00000000000e+00
  +1.00000000000e+00
  +1.00000000000e+00
  +1.00000000000e+00
  +1.00000000000e+00
  +1.00000000000e+00
  +1.00000000000e+00
  +1.00000000000e+00
  +1.00000000000e+00
  +1.00000000000e+00
  +1.00000000000e+00
  +1.00000000000e+00
  +1.00000000000e+00
  +1.00000000000e+00
  +1.00000000000e+00
  +1.00000000000e+00
  +1.00000000000e+00
  +1.00000000000e+00
  +1.00000000000e+00
  +1.00000000000e+00
  +1.00000000000e+00
  +1.00000000000e+00
  +1.00000000000e+00
  +1.00000000000e+00
  +1.00000000000e+00
  +1.00000000000e+00
  +1.00000000000e+00
  +1.00000000000e+00
  +1.00000000000e+00
  +1.00000000000e+00
  +1.00000000000e+00
  +1.00000000000e+00
  +1.00000000000e+00
  +1.00000000000e+00
  +1.00000000000e+00
  +1.00000000000e+00
  +1.00000000000e+00
  +1.00000000000e+00
  +1.00000000000e+00
  +1.00000000000e+00
  +1.00000000000e+00
  +1.00000000000e+00
  +1.00000000000e+00
  +1.00000000000e+00
  +1.00000000000e+00
  +1.00000000000e+00
  +1.00000000000e+00
  +1.00000000000e+00
  +1.00000000000e+00
  +1.00000000000e+00
  +1.00000000000e+00
  +1.00000000000e+00
  +1.00000000000e+00
  +1.00000000000e+00
  +1.00000000000e+00
  +1.00000000000e+00
  +1.00000000000e+00
  +1.00000000000e+00
  +1.00000000000e+00
  +1.00000000000e+00
  +1.00000000000e+00
  +1.00000000000e+00
  +1.00000000000e+00
  +1.00000000000e+00
  +1.00000000000e+00
  +1.00000000000e+00
  +1.00000000000e+00
  +1.00000000000e+00
  +1.00000000000e+00
  +1.00000000000e+00
  +1.00000000000e+00
  +1.00000000000e+00
  +1.00000000000e+00
  +1.00000000000e+00
  +1.00000000000e+00
  +1.00000000000e+00
  +1.00000000000e+00
  +1.00000000000e+00
  +1.00000000000e+00
  +1.00000000000e+00
  +1.00000000000e+00
  +1.00000000000e+00
  +1.00000000000e+00
  +1.00000000000e+00
  +1.00000000000e+00
  +1.00000000000e+00
  +1.00000000000e+00
  +1.00000000000e+00
  +1.00000000000e+00
  +1.00000000000e+00
  +1.00000000000e+00
  +1.00000000000e+00
</dep>
<dep _net4.Vt time>
  +5.00000000000e+00
  +5.00000000000e+00
  +5.00000000000e+00
  +5.00000000000e+00
  +5.00000000000e+00
  +5.00000000000e+00
  +5.00000000000e+00
  +5.00000000000e+00
  +5.00000000000e+00
  +5.00000000000e+00
  +5.00000000000e+00
  +5.00000000000e+00
  +5.00000000000e+00
  +5.00000000000e+00
  +5.00000000000e+00
  +5.00000000000e+00
  +5.00000000000e+00
  +5.00000000000e+00
  +5.00000000000e+00
  +5.00000000000e+00
  +5.00000000000e+00
  +5.00000000000e+00
  +5.00000000000e+00
  +5.00000000000e+00
  +5.00000000000e+00
  +5.00000000000e+00
  +5.00000000000e+00
  +5.00000000000e+00
  +5.00000000000e+00
  +5.00000000000e+00
  +5.00000000000e+00
  +5.00000000000e+00
  +5.00000000000e+00
  +5.00000000000e+00
  +5.00000000000e+00
  +5.00000000000e+00
  +5.00000000000e+00
  +5.00000000000e+00
  +5.00000000000e+00
  +5.00000000000e+00
  +5.00000000000e+00
  +5.00000000000e+00
  +5.00000000000e+00
  +5.00000000000e+00
  +5.00000000000e+00
  +5.00000000000e+00
  +5.00000000000e+00
  +5.00000000000e+00
  +5.00000000000e+00
  +5.00000000000e+00
  +5.00000000000e+00
  +5.00000000000e+00
  +5.00000000000e+00
  +5.00000000000e+00
  +5.00000000000e+00
  +5.00000000000e+00
  +5.00000000000e+00
  +5.00000000000e+00
  +5.00000000000e+00
  +5.00000000000e+00
  +5.00000000000e+00
  +5.00000000000e+00
  +5.00000000000e+00
  +5.00000000000e+00
  +5.00000000000e+00
  +5.00000000000e+00
  +5.00000000000e+00
  +5.00000000000e+00
  +5.00000000000e+00
  +5.00000000000e+00
  +5.00000000000e+00
  +5.00000000000e+00
  +5.00000000000e+00
  +5.00000000000e+00
  +5.00000000000e+00
  +5.00000000000e+00
  +5.00000000000e+00
  +5.00000000000e+00
  +5.00000000000e+00
  +5.00000000000e+00
  +5.00000000000e+00
  +5.00000000000e+00
  +5.00000000000e+00
  +5.00000000000e+00
  +5.00000000000e+00
  +5.00000000000e+00
  +5.00000000000e+00
  +5.00000000000e+00
  +5.00000000000e+00
  +5.00000000000e+00
  +5.00000000000e+00
  +5.00000000000e+00
  +5.00000000000e+00
  +5.00000000000e+00
  +5.00000000000e+00
  +5.00000000000e+00
  +5.00000000000e+00
  +5.00000000000e+00
  +5.00000000000e+00
  +5.00000000000e+00
</dep>
<dep Vout.Vt time>
  +9.46938998918e-08
  +6.06480017551e-01
  +9.26941454480e-01
  +1.10007927651e+00
  +1.18993792775e+00
  +1.22610595716e+00
  +1.22325562501e+00
  +1.19033991575e+00
  +1.13475597520e+00
  +1.06400311848e+00
  +9.86070579768e-01
  +9.09176941163e-01
  +8.41211854226e-01
  +7.89058827414e-01
  +7.57972452547e-01
  +7.51079091020e-01
  +7.69077598519e-01
  +8.10175778130e-01
  +8.70271827368e-01
  +9.43365868488e-01
  +1.02215943251e+00
  +1.09878297623e+00
  +1.16558942046e+00
  +1.21590429611e+00
  +1.24470377864e+00
  +1.24911203349e+00
  +1.22868947870e+00
  +1.18547520850e+00
  +1.12378413287e+00
  +1.04977726516e+00
  +9.70843382252e-01
  +8.94867331342e-01
  +8.29433515783e-01
  +7.81075940562e-01
  +7.54625066637e-01
  +7.52721444414e-01
  +7.75554966239e-01
  +8.20845744388e-01
  +8.84071129188e-01
  +9.58917568502e-01
  +1.03791202231e+00
  +1.11316437423e+00
  +1.17716102765e+00
  +1.22351142391e+00
  +1.24758717461e+00
  +1.24698390784e+00
  +1.22176202243e+00
  +1.17444012391e+00
  +1.10974367339e+00
  +1.03413311346e+00
  +9.55158750525e-01
  +8.80707973359e-01
  +8.18213096176e-01
  +7.73914577261e-01
  +7.52238157065e-01
  +7.55347336409e-01
  +7.82931677006e-01
  +8.32236586435e-01
  +8.98338622117e-01
  +9.74636984592e-01
  +1.05351269823e+00
  +1.12708942252e+00
  +1.18802021970e+00
  +1.23021984835e+00
  +1.24947523436e+00
  +1.24386319468e+00
  +1.21394404239e+00
  +1.16270547182e+00
  +1.09526428706e+00
  +1.01835488723e+00
  +9.39656716865e-01
  +8.67029998332e-01
  +8.07725070609e-01
  +7.67665363815e-01
  +7.50850639719e-01
  +7.58960175220e-01
  +7.91183964247e-01
  +8.44304261358e-01
  +9.13016753154e-01
  +9.90459720537e-01
  +1.06890000465e+00
  +1.14050416267e+00
  +1.19812239746e+00
  +1.23600231106e+00
  +1.25036022716e+00
  +1.23976190424e+00
  +1.20526616031e+00
  +1.15031762441e+00
  +1.08040336753e+00
  +1.00250587461e+00
  +9.24402252723e-01
  +8.53892010784e-01
  +7.98016297930e-01
  +7.62354810938e-01
  +7.50468660791e-01
  +7.63544788282e-01
  +8.00277624680e-01
  +8.56999018218e-01
  +9.28045719850e-01
  +1.00632153586e+00
</dep>
<dep _net3.Vt time>
  +4.16633052688e-01
  +1.00448858453e+00
  +1.00385066406e+00
  +1.00295547463e+00
  +1.00186178862e+00
  +1.00066762143e+00
  +9.99484681897e-01
  +9.98428491877e-01
  +9.97603079443e-01
  +9.97090188567e-01
  +9.96940713033e-01
  +9.97170493764e-01
  +9.97753633385e-01
  +9.98634485471e-01
  +9.99724266922e-01
  +1.00091414685e+00
  +1.00208530286e+00
  +1.00312017619e+00
  +1.00391634204e+00
  +1.00439400089e+00
  +1.00450544223e+00
  +1.00424014320e+00
  +1.00362317328e+00
  +1.00271729762e+00
  +1.00161237804e+00
  +1.00041917924e+00
  +9.99256744149e-01
  +9.98240397231e-01
  +9.97472904792e-01
  +9.97030331940e-01
  +9.96957695807e-01
  +9.97258553096e-01
  +9.97908860037e-01
  +9.98839473055e-01
  +9.99958158993e-01
  +1.00115365758e+00
  +1.00230650284e+00
  +1.00330158967e+00
  +1.00403954456e+00
