<Qucs Dataset 0.0.18>
<indep time 100>
  +0.00000000000e+00
  +5.05050505051e-04
  +1.01010101010e-03
  +1.51515151515e-03
  +2.02020202020e-03
  +2.52525252525e-03
  +3.03030303030e-03
  +3.53535353535e-03
  +4.04040404040e-03
  +4.54545454545e-03
  +5.05050505051e-03
  +5.55555555556e-03
  +6.06060606061e-03
  +6.56565656566e-03
  +7.07070707071e-03
  +7.57575757576e-03
  +8.08080808081e-03
  +8.58585858586e-03
  +9.09090909091e-03
  +9.59595959596e-03
  +1.01010101010e-02
  +1.06060606061e-02
  +1.11111111111e-02
  +1.16161616162e-02
  +1.21212121212e-02
  +1.26262626263e-02
  +1.31313131313e-02
  +1.36363636364e-02
  +1.41414141414e-02
  +1.46464646465e-02
  +1.51515151515e-02
  +1.56565656566e-02
  +1.61616161616e-02
  +1.66666666667e-02
  +1.71717171717e-02
  +1.76767676768e-02
  +1.81818181818e-02
  +1.86868686869e-02
  +1.91919191919e-02
  +1.96969696970e-02
  +2.02020202020e-02
  +2.07070707071e-02
  +2.12121212121e-02
  +2.17171717172e-02
  +2.22222222222e-02
  +2.27272727273e-02
  +2.32323232323e-02
  +2.37373737374e-02
  +2.42424242424e-02
  +2.47474747475e-02
  +2.52525252525e-02
  +2.57575757576e-02
  +2.62626262626e-02
  +2.67676767677e-02
  +2.72727272727e-02
  +2.77777777778e-02
  +2.82828282828e-02
  +2.87878787879e-02
  +2.92929292929e-02
  +2.97979797980e-02
  +3.03030303030e-02
  +3.08080808081e-02
  +3.13131313131e-02
  +3.18181818182e-02
  +3.23232323232e-02
  +3.28282828283e-02
  +3.33333333333e-02
  +3.38383838384e-02
  +3.43434343434e-02
  +3.48484848485e-02
  +3.53535353535e-02
  +3.58585858586e-02
  +3.63636363636e-02
  +3.68686868687e-02
  +3.73737373737e-02
  +3.78787878788e-02
  +3.83838383838e-02
  +3.88888888889e-02
  +3.93939393939e-02
  +3.98989898990e-02
  +4.04040404040e-02
  +4.09090909091e-02
  +4.14141414141e-02
  +4.19191919192e-02
  +4.24242424242e-02
  +4.29292929293e-02
  +4.34343434343e-02
  +4.39393939394e-02
  +4.44444444444e-02
  +4.49494949495e-02
  +4.54545454545e-02
  +4.59595959596e-02
  +4.64646464646e-02
  +4.69696969697e-02
  +4.74747474747e-02
  +4.79797979798e-02
  +4.84848484848e-02
  +4.89898989899e-02
  +4.94949494949e-02
  +5.00000000000e-02
</indep>
<dep V4.It time>
  -8.32949171454e-11
  -7.34034176082e-11
  -5.34227277307e-11
  -2.88286306331e-11
  -1.92599130424e-12
  +2.54993578530e-11
  +5.09359273143e-11
  +7.09325088188e-11
  +8.49453681407e-11
  +9.03566036440e-11
  +8.64406326551e-11
  +7.43727379015e-11
  +5.38015586117e-11
  +2.81373408046e-11
  -9.25647592053e-13
  -2.98645384431e-11
  -5.55509004239e-11
  -7.55936847406e-11
  -8.70183608579e-11
  -9.02337384515e-11
  -8.41831320244e-11
  -6.99740033999e-11
  -4.91957793639e-11
  -2.35115096410e-11
  +3.98616683752e-12
  +3.11363779256e-11
  +5.50962091802e-11
  +7.46192016173e-11
  +8.67111839469e-11
  +9.03848322865e-11
  +8.49884412411e-11
  +7.05549377034e-11
  +4.93286522339e-11
  +2.21233171061e-11
  -6.83159919490e-12
  -3.57028515860e-11
  -6.00351824612e-11
  -7.86170678811e-11
  -8.83253902235e-11
  -8.97213393191e-11
  -8.15891698584e-11
  -6.62762698087e-11
  -4.40679901734e-11
  -1.84526729930e-11
  +9.51822387980e-12
  +3.59525148298e-11
  +5.97427809366e-11
  +7.72863064893e-11
  +8.81220026627e-11
  +8.96657381078e-11
  +8.28561858570e-11
  +6.71236290658e-11
  +4.42931050940e-11
  +1.66958817449e-11
  -1.27110885717e-11
  -4.07065312368e-11
  -6.42767249882e-11
  -8.09905763287e-11
  -8.92738540187e-11
  -8.85190229321e-11
  -7.90527209741e-11
  -6.20064821148e-11
  -3.91395167055e-11
  -1.26491661369e-11
  +1.50130338361e-11
  +4.13162921862e-11
  +6.38218020258e-11
  +8.03582589928e-11
  +8.92065166462e-11
  +8.92890880542e-11
  +8.03452758429e-11
  +6.30550310721e-11
  +3.90622359107e-11
  +1.08529833225e-11
  -1.85247827048e-11
  -4.58629787961e-11
  -6.82318588568e-11
  -8.33551733348e-11
  -8.98483032260e-11
  -8.72969919526e-11
  -7.62013831688e-11
  -5.78335182688e-11
  -3.40553684858e-11
  -7.12951651092e-12
  +2.04628846168e-11
  +4.61957169506e-11
  +6.76693705647e-11
  +8.27879044239e-11
  +8.99454159286e-11
  +8.82147659139e-11
  +7.75159491207e-11
  +5.87239544600e-11
  +3.36660090400e-11
  +4.96777752152e-12
  -2.42560131021e-11
  -5.08185039673e-11
  -7.18942493428e-11
  -8.53714025526e-11
  -9.00580155991e-11
  -8.57307067059e-11
</dep>
<dep V3.It time>
  +7.42454140964e-11
  +6.71262317082e-11
  +5.00549034741e-11
  +2.73907336345e-11
  +1.47372223403e-12
  -2.42846817876e-11
  -4.71357921157e-11
  -6.56414935595e-11
  -7.66838816688e-11
  -8.01878779225e-11
  -7.60227700710e-11
  -6.37951191801e-11
  -4.61267755427e-11
  -2.34489973983e-11
  +1.09551905375e-12
  +2.55521521392e-11
  +4.76539673957e-11
  +6.49084105126e-11
  +7.66252385262e-11
  +8.01784182365e-11
  +7.60771077183e-11
  +6.41539302645e-11
  +4.55396951293e-11
  +2.24234111342e-11
  -3.41673117370e-12
  -2.88702446119e-11
  -5.15667825305e-11
  -6.81869883737e-11
  -7.80276205765e-11
  -7.99388435769e-11
  -7.38674741919e-11
  -6.09637760851e-11
  -4.16069707251e-11
  -1.89763189252e-11
  +6.06161936236e-12
  +2.98972647671e-11
  +5.15742047616e-11
  +6.77352725014e-11
  +7.80209234891e-11
  +8.00135994370e-11
  +7.46144211425e-11
  +6.09242772052e-11
  +4.14959861656e-11
  +1.70246416467e-11
  -8.63495482580e-12
  -3.40041271430e-11
  -5.51132576763e-11
  -7.10605249898e-11
  -7.90320343895e-11
  -7.96517291644e-11
  -7.17747911993e-11
  -5.72491229599e-11
  -3.72723007783e-11
  -1.37850377303e-11
  +1.10053942774e-11
  +3.47822978325e-11
  +5.53148144645e-11
  +7.06151349689e-11
  +7.91149374974e-11
  +7.98329866204e-11
  +7.25200164713e-11
  +5.77521259118e-11
  +3.69375535505e-11
  +1.22076782831e-11
  -1.38142797130e-11
  -3.83386693443e-11
  -5.87685968976e-11
  -7.30200645259e-11
  -7.97446373272e-11
  -7.84291909181e-11
  -6.93815021493e-11
  -5.36318453992e-11
  -3.27855823940e-11
  -8.85471186478e-12
  +1.59151818176e-11
  +3.92165692957e-11
  +5.88507363722e-11
  +7.28999696197e-11
  +7.99003565391e-11
  +7.90066334991e-11
  +7.01293935968e-11
  +5.40139997408e-11
  +3.22260566608e-11
  +7.01746938458e-12
  -1.89271163649e-11
  -4.28280800350e-11
  -6.21679491888e-11
  -7.49958298319e-11
  -8.01263343003e-11
  -7.72148703522e-11
  -6.67236391840e-11
  -4.98107322876e-11
  -2.81766240024e-11
  -3.89386077980e-12
  +2.07659143072e-11
  +4.35032563848e-11
  +6.21618090646e-11
  +7.49008627523e-11
  +8.03675710872e-11
  +7.78582312667e-11
</dep>
<dep V1.It time>
  -4.25531496369e-03
  -1.82968872871e-03
  -1.71670532754e-03
  -1.64485424117e-03
  -1.62119530092e-03
  -1.64812353023e-03
  -1.72284460474e-03
  -1.83803968444e-03
  -1.98216361464e-03
  -2.14079382036e-03
  -2.29814971166e-03
  -2.43842636211e-03
  -2.54765654050e-03
  -2.61493977805e-03
  -2.63355669623e-03
  -2.60164920275e-03
  -2.52248112595e-03
  -2.40375608079e-03
  -2.25751113372e-03
  -2.09825330997e-03
  -1.94199782812e-03
  -1.80422230760e-03
  -1.69875934757e-03
  -1.63611819191e-03
  -1.62255026941e-03
  -1.65941442483e-03
  -1.74297519662e-03
  -1.86499028861e-03
  -2.01322302813e-03
  -2.17289752960e-03
  -2.32805697654e-03
  -2.46315819190e-03
  -2.56475023123e-03
  -2.62268844468e-03
  -2.63118725179e-03
  -2.58939798066e-03
  -2.50149361451e-03
  -2.37625208683e-03
  -2.22617973659e-03
  -2.06626245320e-03
  -1.91246921910e-03
  -1.78015748283e-03
  -1.68253959860e-03
  -1.62936347012e-03
  -1.62593914668e-03
  -1.67260857358e-03
  -1.76471144618e-03
  -1.89305057751e-03
  -2.04481030881e-03
  -2.20483625258e-03
  -2.35711599392e-03
  -2.48652925506e-03
  -2.58007718890e-03
  -2.62844768583e-03
  -2.62678789074e-03
  -2.57528383764e-03
  -2.47907407879e-03
  -2.34776592312e-03
  -2.19447150953e-03
  -2.03449847546e-03
  -1.88382137048e-03
  -1.75748647346e-03
  -1.66810930480e-03
  -1.62461486875e-03
  -1.63134642248e-03
  -1.68763176806e-03
  -1.78785037673e-03
  -1.92199464225e-03
  -2.07666921814e-03
  -2.23642864704e-03
  -2.38531970950e-03
  -2.50847447688e-03
  -2.59359498941e-03
  -2.63218130300e-03
  -2.62038027463e-03
  -2.55937032862e-03
  -2.45524378178e-03
  -2.31839847832e-03
  -2.16249948431e-03
  -2.00311452480e-03
  -1.85615942553e-03
  -1.73630879420e-03
  -1.65553064694e-03
  -1.62189130895e-03
  -1.63874992933e-03
  -1.70442304392e-03
  -1.81235268232e-03
  -1.95176123211e-03
  -2.10872766716e-03
  -2.26757767015e-03
  -2.41244883490e-03
  -2.52887465075e-03
  -2.60522909599e-03
  -2.63388758641e-03
  -2.61198834923e-03
  -2.54171819332e-03
  -2.43009413935e-03
  -2.28826271583e-03
  -2.13038689163e-03
  -1.97223179365e-03
</dep>
<dep V2.It time>
  +4.32754757767e-03
  -6.23015446041e-04
  -8.59811839525e-04
  -1.01053506198e-03
  -1.06037528399e-03
  -1.00428759394e-03
  -8.48093441018e-04
  -6.07090895254e-04
  -3.05434685916e-04
  +2.66892223430e-05
  +3.56240419324e-04
  +6.50118506675e-04
  +8.79062402045e-04
  +1.02022499239e-03
  +1.05950878924e-03
  +9.92992957127e-04
  +8.27482318660e-04
  +5.79081165594e-04
  +2.72974597506e-04
  -6.04729199312e-05
  -3.87728934646e-04
  -6.76378233094e-04
  -8.97440211109e-04
  -1.02888644916e-03
  -1.05759886430e-03
  -9.80701980243e-04
  -8.05988295268e-04
  -5.50691113059e-04
  -2.40413318997e-04
  +9.39161757339e-05
  +4.18887057544e-04
  +7.01944540517e-04
  +9.14907239217e-04
  +1.03650934626e-03
  +1.05460794708e-03
  +9.67395755865e-04
  +7.83581587064e-04
  +5.21520712661e-04
  +2.07381945743e-04
  -1.27465518680e-04
  -4.49584561353e-04
  -7.26809094769e-04
  -9.31456096749e-04
  -1.04308997516e-03
  -1.05056322046e-03
  -9.53129571083e-04
  -7.60518533440e-04
  -4.91963815172e-04
  -1.74282690098e-04
  +1.60801914804e-04
  +4.79760864572e-04
  +7.50924090459e-04
  +9.47054553464e-04
  +1.04862871359e-03
  +1.04545616371e-03
  +9.37896107674e-04
  +7.36679806761e-04
  +4.61900307177e-04
  +1.40996475489e-04
  -1.93986949047e-04
  -5.09599270505e-04
  -7.74324148010e-04
  -9.61726747083e-04
  -1.05309346312e-03
  -1.03930062009e-03
  -9.21725540484e-04
  -7.12109008904e-04
  -4.31382863602e-04
  -1.07579789889e-04
  +2.26965961150e-04
  +5.38847398687e-04
  +7.96920739574e-04
  +9.75415356909e-04
  +1.05650717723e-03
  +1.03209855263e-03
  +9.04626873804e-04
  +6.86821177637e-04
  +4.00431054048e-04
  +7.40547805582e-05
  -2.59716437770e-04
  -5.67552953214e-04
  -8.18714899504e-04
  -9.88121806153e-04
  -1.05885707817e-03
  -1.02385724941e-03
  -8.86617324544e-04
  -6.60841775664e-04
  -3.69076044367e-04
  -4.04552043415e-05
  +2.92205401953e-04
  +5.95687030028e-04
  +8.39684682931e-04
  +9.99833300497e-04
  +1.06014079979e-03
  +1.01458500873e-03
  +8.67715026793e-04
  +6.34196962040e-04
  +3.37349406393e-04
  +6.81489316277e-06
  -3.24400140064e-04
</dep>
<dep V5.It time>
  -8.75306242035e-06
  -8.90277634756e-08
  -8.96408465086e-08
  -9.03732981294e-08
  -9.11417789319e-08
  -9.18690599294e-08
  -9.24889312324e-08
  -9.29289154754e-08
  -9.31642098215e-08
  -9.31470399799e-08
  -9.28940325766e-08
  -9.24295172972e-08
  -9.17972864454e-08
  -9.10613120947e-08
  -9.02952537074e-08
  -8.95742233828e-08
  -8.89759191984e-08
  -8.85476213014e-08
  -8.83428056273e-08
  -8.83765851787e-08
  -8.86583572692e-08
  -8.91331750228e-08
  -8.97833412385e-08
  -9.05271635671e-08
  -9.12919911329e-08
  -9.20036426796e-08
  -9.25884327890e-08
  -9.29996957188e-08
  -9.31792245037e-08
  -9.31070173184e-08
  -9.28200390394e-08
  -9.23188617876e-08
  -9.16597947683e-08
  -9.09104385699e-08
  -9.01456221989e-08
  -8.94417185326e-08
  -8.88690177925e-08
  -8.84847086192e-08
  -8.83271672433e-08
  -8.84121254177e-08
  -8.87310993865e-08
  -8.92522371436e-08
  -8.99234990174e-08
  -9.06778543173e-08
  -9.14399747905e-08
  -9.21337568088e-08
  -9.26899208322e-08
  -9.30529295825e-08
  -9.31865338006e-08
  -9.30773920838e-08
  -9.27338989054e-08
  -9.21919027140e-08
  -9.15127772691e-08
  -9.07556878704e-08
  -8.99977971380e-08
  -8.93144400698e-08
  -8.87749888423e-08
  -8.84333186877e-08
  -8.83235480237e-08
  -8.84566383031e-08
  -8.88192994288e-08
  -8.93753168708e-08
  -9.00691679714e-08
  -9.08315663103e-08
  -9.15863804940e-08
  -9.22582364646e-08
  -9.27800441875e-08
  -9.30996971102e-08
  -9.31852754052e-08
  -9.30282334160e-08
  -9.26442530042e-08
  -9.20716775967e-08
  -9.13676832928e-08
  -9.06025693894e-08
  -8.98527384517e-08
  -8.91930669210e-08
  -8.86894281209e-08
  -8.83921142954e-08
  -8.83308145392e-08
  -8.85116501086e-08
  -8.89165631690e-08
  -8.95051200061e-08
  -9.02185486503e-08
  -9.09856077138e-08
  -9.17297003910e-08
  -9.23765232506e-08
  -9.28614860091e-08
  -9.31361613696e-08
  -9.31731208633e-08
  -9.29686737973e-08
  -9.25432358000e-08
  -9.19392901599e-08
  -9.12171455364e-08
  -9.04489136769e-08
  -8.97113085002e-08
  -8.90779856097e-08
  -8.86121872115e-08
  -8.83604268931e-08
  -8.83478448776e-08
  -8.85756975765e-08
</dep>
<dep _net1.Vt time>
  +1.00000000000e+00
  +1.00000000000e+00
  +1.00000000000e+00
  +1.00000000000e+00
  +1.00000000000e+00
  +1.00000000000e+00
  +1.00000000000e+00
  +1.00000000000e+00
  +1.00000000000e+00
  +1.00000000000e+00
  +1.00000000000e+00
  +1.00000000000e+00
  +1.00000000000e+00
  +1.00000000000e+00
  +1.00000000000e+00
  +1.00000000000e+00
  +1.00000000000e+00
  +1.00000000000e+00
  +1.00000000000e+00
  +1.00000000000e+00
  +1.00000000000e+00
  +1.00000000000e+00
  +1.00000000000e+00
  +1.00000000000e+00
  +1.00000000000e+00
  +1.00000000000e+00
  +1.00000000000e+00
  +1.00000000000e+00
  +1.00000000000e+00
  +1.00000000000e+00
  +1.00000000000e+00
  +1.00000000000e+00
  +1.00000000000e+00
  +1.00000000000e+00
  +1.00000000000e+00
  +1.00000000000e+00
  +1.00000000000e+00
  +1.00000000000e+00
  +1.00000000000e+00
  +1.00000000000e+00
  +1.00000000000e+00
  +1.00000000000e+00
  +1.00000000000e+00
  +1.00000000000e+00
  +1.00000000000e+00
  +1.00000000000e+00
  +1.00000000000e+00
  +1.00000000000e+00
  +1.00000000000e+00
  +1.00000000000e+00
  +1.00000000000e+00
  +1.00000000000e+00
  +1.00000000000e+00
  +1.00000000000e+00
  +1.00000000000e+00
  +1.00000000000e+00
  +1.00000000000e+00
  +1.00000000000e+00
  +1.00000000000e+00
  +1.00000000000e+00
  +1.00000000000e+00
  +1.00000000000e+00
  +1.00000000000e+00
  +1.00000000000e+00
  +1.00000000000e+00
  +1.00000000000e+00
  +1.00000000000e+00
  +1.00000000000e+00
  +1.00000000000e+00
  +1.00000000000e+00
  +1.00000000000e+00
  +1.00000000000e+00
  +1.00000000000e+00
  +1.00000000000e+00
  +1.00000000000e+00
  +1.00000000000e+00
  +1.00000000000e+00
  +1.00000000000e+00
  +1.00000000000e+00
  +1.00000000000e+00
  +1.00000000000e+00
  +1.00000000000e+00
  +1.00000000000e+00
  +1.00000000000e+00
  +1.00000000000e+00
  +1.00000000000e+00
  +1.00000000000e+00
  +1.00000000000e+00
  +1.00000000000e+00
  +1.00000000000e+00
  +1.00000000000e+00
  +1.00000000000e+00
  +1.00000000000e+00
  +1.00000000000e+00
  +1.00000000000e+00
  +1.00000000000e+00
  +1.00000000000e+00
  +1.00000000000e+00
  +1.00000000000e+00
  +1.00000000000e+00
</dep>
<dep Vout.Vt time>
  +1.96706708076e-06
  +1.14004629751e+00
  +1.19314849606e+00
  +1.22691850665e+00
  +1.23803820857e+00
  +1.22538194079e+00
  +1.19026303577e+00
  +1.13612134831e+00
  +1.06838310112e+00
  +9.93826904432e-01
  +9.19869635520e-01
  +8.53939609808e-01
  +8.02601425964e-01
  +7.70978304319e-01
  +7.62228352774e-01
  +7.77224874708e-01
  +8.14433870803e-01
  +8.70234642028e-01
  +9.38969767150e-01
  +1.01382094431e+00
  +1.08726102079e+00
  +1.15201551543e+00
  +1.20158310664e+00
  +1.23102444980e+00
  +1.23740137338e+00
  +1.22007522033e+00
  +1.18080165759e+00
  +1.12345456435e+00
  +1.05378517678e+00
  +9.78738161086e-01
  +9.05813221025e-01
  +8.42315649806e-01
  +7.94567391322e-01
  +7.67336431000e-01
  +7.63341991661e-01
  +7.82982949088e-01
  +8.24298001179e-01
  +8.83161519191e-01
  +9.53695523805e-01
  +1.02885664700e+00
  +1.10113946703e+00
  +1.16332598307e+00
  +1.20920638866e+00
  +1.23419916905e+00
  +1.23580860106e+00
  +1.21387397042e+00
  +1.17058562030e+00
  +1.11026622857e+00
  +1.03893915486e+00
  +9.63726961287e-01
  +8.92155482858e-01
  +8.31331250122e-01
  +7.87363721218e-01
  +7.64629587661e-01
  +7.65409691353e-01
  +7.89616596309e-01
  +8.34835182969e-01
  +8.96550016133e-01
  +9.68598390523e-01
  +1.04378571654e+00
  +1.11460395588e+00
  +1.17398135747e+00
  +1.21598862675e+00
  +1.23643101169e+00
  +1.23326718144e+00
  +1.20681306901e+00
  +1.15971032294e+00
  +1.09666251814e+00
  +1.02396546747e+00
  +9.48878535892e-01
  +8.78899736534e-01
  +8.21016995867e-01
  +7.81010354977e-01
  +7.62874787589e-01
  +7.68421270922e-01
  +7.97095945548e-01
  +8.46035422561e-01
  +9.10352715190e-01
  +9.83625242374e-01
  +1.05853617335e+00
  +1.12760507000e+00
  +1.18393486672e+00
  +1.22190059594e+00
  +1.23771108479e+00
  +1.22978753322e+00
  +1.19892116936e+00
  +1.14819423931e+00
  +1.08267222091e+00
  +1.00889799643e+00
  +9.34238495027e-01
  +8.66149047597e-01
  +8.11428914149e-01
  +7.75542324886e-01
  +7.62072834386e-01
  +7.72365475860e-01
  +8.05392449140e-01
  +8.57855754505e-01
  +9.24516523562e-01
  +9.98718160932e-01
  +1.07305105698e+00
</dep>
<dep _net4.Vt time>
  +2.00000000000e+00
  +2.00000000000e+00
  +2.00000000000e+00
  +2.00000000000e+00
  +2.00000000000e+00
  +2.00000000000e+00
  +2.00000000000e+00
  +2.00000000000e+00
  +2.00000000000e+00
  +2.00000000000e+00
  +2.00000000000e+00
  +2.00000000000e+00
  +2.00000000000e+00
  +2.00000000000e+00
  +2.00000000000e+00
  +2.00000000000e+00
  +2.00000000000e+00
  +2.00000000000e+00
  +2.00000000000e+00
  +2.00000000000e+00
  +2.00000000000e+00
  +2.00000000000e+00
  +2.00000000000e+00
  +2.00000000000e+00
  +2.00000000000e+00
  +2.00000000000e+00
  +2.00000000000e+00
  +2.00000000000e+00
  +2.00000000000e+00
  +2.00000000000e+00
  +2.00000000000e+00
  +2.00000000000e+00
  +2.00000000000e+00
  +2.00000000000e+00
  +2.00000000000e+00
  +2.00000000000e+00
  +2.00000000000e+00
  +2.00000000000e+00
  +2.00000000000e+00
  +2.00000000000e+00
  +2.00000000000e+00
  +2.00000000000e+00
  +2.00000000000e+00
  +2.00000000000e+00
  +2.00000000000e+00
  +2.00000000000e+00
  +2.00000000000e+00
  +2.00000000000e+00
  +2.00000000000e+00
  +2.00000000000e+00
  +2.00000000000e+00
  +2.00000000000e+00
  +2.00000000000e+00
  +2.00000000000e+00
  +2.00000000000e+00
  +2.00000000000e+00
  +2.00000000000e+00
  +2.00000000000e+00
  +2.00000000000e+00
  +2.00000000000e+00
  +2.00000000000e+00
  +2.00000000000e+00
  +2.00000000000e+00
  +2.00000000000e+00
  +2.00000000000e+00
  +2.00000000000e+00
  +2.00000000000e+00
  +2.00000000000e+00
  +2.00000000000e+00
  +2.00000000000e+00
  +2.00000000000e+00
  +2.00000000000e+00
  +2.00000000000e+00
  +2.00000000000e+00
  +2.00000000000e+00
  +2.00000000000e+00
  +2.00000000000e+00
  +2.00000000000e+00
  +2.00000000000e+00
  +2.00000000000e+00
  +2.00000000000e+00
  +2.00000000000e+00
  +2.00000000000e+00
  +2.00000000000e+00
  +2.00000000000e+00
  +2.00000000000e+00
  +2.00000000000e+00
  +2.00000000000e+00
  +2.00000000000e+00
  +2.00000000000e+00
  +2.00000000000e+00
  +2.00000000000e+00
  +2.00000000000e+00
  +2.00000000000e+00
  +2.00000000000e+00
  +2.00000000000e+00
  +2.00000000000e+00
  +2.00000000000e+00
  +2.00000000000e+00
  +2.00000000000e+00
</dep>
<dep _net3.Vt time>
  +3.61185963235e-01
  +1.00467752493e+00
  +1.00363176771e+00
  +1.00229652977e+00
  +1.00080452412e+00
  +9.99304413460e-01
  +9.97945527923e-01
  +9.96865772350e-01
  +9.96169269826e-01
  +9.95930557261e-01
  +9.96170360220e-01
  +9.96864266765e-01
  +9.97943775857e-01
  +9.99301230484e-01
  +1.00080108138e+00
  +1.00229337754e+00
  +1.00362994927e+00
  +1.00467540677e+00
  +1.00532716213e+00
  +1.00551898965e+00
  +1.00523381108e+00
  +1.00449701862e+00
  +1.00338432006e+00
  +1.00200602959e+00
  +1.00050010244e+00
  +9.99016815452e-01
  +9.97703959678e-01
  +9.96691857656e-01
  +9.96084045202e-01
  +9.95939488400e-01
  +9.96274488000e-01
  +9.97052178051e-01
  +9.98197019799e-01
  +9.99594460171e-01
  +1.00110495390e+00
  +1.00257766645e+00
  +1.00386553604e+00
  +1.00483995890e+00
  +1.00540363134e+00
