<Qucs Dataset 0.0.18>
<indep time 100>
  +0.00000000000e+00
  +5.05050505051e-04
  +1.01010101010e-03
  +1.51515151515e-03
  +2.02020202020e-03
  +2.52525252525e-03
  +3.03030303030e-03
  +3.53535353535e-03
  +4.04040404040e-03
  +4.54545454545e-03
  +5.05050505051e-03
  +5.55555555556e-03
  +6.06060606061e-03
  +6.56565656566e-03
  +7.07070707071e-03
  +7.57575757576e-03
  +8.08080808081e-03
  +8.58585858586e-03
  +9.09090909091e-03
  +9.59595959596e-03
  +1.01010101010e-02
  +1.06060606061e-02
  +1.11111111111e-02
  +1.16161616162e-02
  +1.21212121212e-02
  +1.26262626263e-02
  +1.31313131313e-02
  +1.36363636364e-02
  +1.41414141414e-02
  +1.46464646465e-02
  +1.51515151515e-02
  +1.56565656566e-02
  +1.61616161616e-02
  +1.66666666667e-02
  +1.71717171717e-02
  +1.76767676768e-02
  +1.81818181818e-02
  +1.86868686869e-02
  +1.91919191919e-02
  +1.96969696970e-02
  +2.02020202020e-02
  +2.07070707071e-02
  +2.12121212121e-02
  +2.17171717172e-02
  +2.22222222222e-02
  +2.27272727273e-02
  +2.32323232323e-02
  +2.37373737374e-02
  +2.42424242424e-02
  +2.47474747475e-02
  +2.52525252525e-02
  +2.57575757576e-02
  +2.62626262626e-02
  +2.67676767677e-02
  +2.72727272727e-02
  +2.77777777778e-02
  +2.82828282828e-02
  +2.87878787879e-02
  +2.92929292929e-02
  +2.97979797980e-02
  +3.03030303030e-02
  +3.08080808081e-02
  +3.13131313131e-02
  +3.18181818182e-02
  +3.23232323232e-02
  +3.28282828283e-02
  +3.33333333333e-02
  +3.38383838384e-02
  +3.43434343434e-02
  +3.48484848485e-02
  +3.53535353535e-02
  +3.58585858586e-02
  +3.63636363636e-02
  +3.68686868687e-02
  +3.73737373737e-02
  +3.78787878788e-02
  +3.83838383838e-02
  +3.88888888889e-02
  +3.93939393939e-02
  +3.98989898990e-02
  +4.04040404040e-02
  +4.09090909091e-02
  +4.14141414141e-02
  +4.19191919192e-02
  +4.24242424242e-02
  +4.29292929293e-02
  +4.34343434343e-02
  +4.39393939394e-02
  +4.44444444444e-02
  +4.49494949495e-02
  +4.54545454545e-02
  +4.59595959596e-02
  +4.64646464646e-02
  +4.69696969697e-02
  +4.74747474747e-02
  +4.79797979798e-02
  +4.84848484848e-02
  +4.89898989899e-02
  +4.94949494949e-02
  +5.00000000000e-02
</indep>
<dep V4.It time>
  -8.33604500208e-11
  -9.96058499114e-11
  -7.93376217523e-11
  -5.55591158271e-11
  -2.83267473910e-11
  +8.05211225775e-13
  +2.95998335210e-11
  +5.55999104175e-11
  +7.64325465269e-11
  +9.00431515082e-11
  +9.45827298261e-11
  +9.00266889030e-11
  +7.61970120963e-11
  +5.46823794904e-11
  +2.65229989469e-11
  -3.81118727571e-12
  -3.44548722079e-11
  -6.06090943997e-11
  -8.09799750948e-11
  -9.21224197426e-11
  -9.45944647831e-11
  -8.69681128343e-11
  -7.17018668883e-11
  -4.89702476671e-11
  -2.24547095812e-11
  +6.84083546310e-12
  +3.47819480917e-11
  +6.02693541626e-11
  +7.94257926357e-11
  +9.17743745004e-11
  +9.44460881306e-11
  +8.83654990235e-11
  +7.24179091907e-11
  +4.95107356845e-11
  +2.05106693522e-11
  -1.00095820331e-11
  -4.01590557310e-11
  -6.52069031006e-11
  -8.40067675922e-11
  -9.33072507622e-11
  -9.38731482663e-11
  -8.44665033587e-11
  -6.77040240717e-11
  -4.38781590139e-11
  -1.67494822673e-11
  +1.26372234640e-11
  +4.01411228855e-11
  +6.46924017477e-11
  +8.24789515507e-11
  +9.31289026101e-11
  +9.39174179715e-11
  +8.59500788605e-11
  +6.83152689537e-11
  +4.41228842056e-11
  +1.44063790509e-11
  -1.61628102067e-11
  -4.56872782497e-11
  -6.95219630870e-11
  -8.66802372652e-11
  -9.41095325674e-11
  -9.27801255967e-11
  -8.16385522899e-11
  -6.34520992252e-11
  -3.86231082495e-11
  -1.09835759561e-11
  +1.83880211764e-11
  +4.53514255559e-11
  +6.88734048294e-11
  +8.52146248169e-11
  +9.41162474790e-11
  +9.30053767478e-11
  +8.31745758879e-11
  +6.39173417878e-11
  +3.85419146186e-11
  +8.23728203186e-12
  -2.22434624571e-11
  -5.10156908070e-11
  -7.35369463980e-11
  -8.89911645919e-11
  -9.45283468168e-11
  -9.13219286395e-11
  -7.84968160973e-11
  -5.89535198848e-11
  -3.35956015424e-11
  -5.17985905221e-12
  +2.36904323041e-11
  +5.07599901196e-11
  +7.24154098252e-11
  +8.80048137866e-11
  +9.47378602841e-11
  +9.20937969137e-11
  +8.00549051856e-11
  +5.96199284161e-11
  +3.27913771326e-11
  +2.40099689422e-12
  -2.82309082833e-11
  -5.57533828787e-11
  -7.72423621658e-11
  -9.05630389515e-11
  -9.45488270617e-11
</dep>
<dep V3.It time>
  +7.43110211615e-11
  +8.10312477071e-11
  +6.97121972045e-11
  +5.09459965480e-11
  +2.66969723748e-11
  -4.15872014478e-13
  -2.74432789488e-11
  -5.14765217132e-11
  -7.00076558214e-11
  -8.12071506065e-11
  -8.44752918683e-11
  -7.89873321630e-11
  -6.58345306993e-11
  -4.60661838946e-11
  -2.26721443686e-11
  +3.53917359691e-12
  +2.87132649533e-11
  +5.19218278476e-11
  +6.95319218218e-11
  +8.11921638139e-11
  +8.42046235302e-11
  +7.94960609358e-11
  +6.59341883298e-11
  +4.61786655114e-11
  +2.08035263007e-11
  -6.10075492688e-12
  -3.30544186550e-11
  -5.57629417315e-11
  -7.32856981293e-11
  -8.25020893065e-11
  -8.40607989390e-11
  -7.65881855745e-11
  -6.24090000619e-11
  -4.15943925417e-11
  -1.75941680291e-11
  +8.74895407319e-12
  +3.35715143058e-11
  +5.59704752662e-11
  +7.23745000852e-11
  +8.25290785855e-11
  +8.38686310556e-11
  +7.74804925113e-11
  +6.24101635472e-11
  +4.14903196904e-11
  +1.54386073142e-11
  -1.15677787961e-11
  -3.80353133172e-11
  -5.97330227204e-11
  -7.58465625211e-11
  -8.34218723150e-11
  -8.32859602828e-11
  -7.42339790532e-11
  -5.87331417011e-11
  -3.69644400725e-11
  -1.24508385776e-11
  +1.39268600773e-11
  +3.83030746857e-11
  +5.98070364989e-11
  +7.49361737129e-11
  +8.35399990336e-11
  +8.31917123523e-11
  +7.51437797609e-11
  +5.86205528604e-11
  +3.66238942594e-11
  +1.00057552843e-11
  -1.69836798919e-11
  -4.28527488380e-11
  -6.34482133817e-11
  -7.80920553735e-11
  -8.40013581613e-11
  -8.21810168015e-11
  -7.15908157976e-11
  -5.48341831543e-11
  -3.21948392081e-11
  -7.26170331592e-12
  +1.90534322894e-11
  +4.28898608512e-11
  +6.34161840286e-11
  +7.72058035001e-11
  +8.42193445255e-11
  +8.21749519824e-11
  +7.24942172667e-11
  +5.45686000149e-11
  +3.12278789933e-11
  +4.52395719154e-12
  -2.26847982351e-11
  -4.71094682933e-11
  -6.72472115299e-11
  -7.96664467016e-11
  -8.42516267888e-11
  -8.04006592738e-11
  -6.86805147171e-11
  -5.03739978069e-11
  -2.73107286266e-11
  -1.68812544297e-12
  +2.41065117958e-11
  +4.76752947280e-11
  +6.67833004385e-11
  +7.95370311538e-11
  +8.45462439904e-11
</dep>
<dep V2.It time>
  +1.97183911260e-04
  +1.29088865952e-04
  +2.47399318559e-05
  -3.17806691000e-05
  -6.12805779327e-05
  -7.33547142440e-05
  -7.27433221080e-05
  -6.23264685970e-05
  -4.44808876929e-05
  -2.16221153837e-05
  +3.66622086864e-06
  +2.87173730985e-05
  +5.09612808167e-05
  +6.81453693000e-05
  +7.85384362027e-05
  +8.10953125688e-05
  +7.55572655676e-05
  +6.24756960042e-05
  +4.31561339166e-05
  +1.95274242951e-05
  -6.05109497988e-06
  -3.10252918155e-05
  -5.29013374619e-05
  -6.94947572605e-05
  -7.91485781075e-05
  -8.08987951600e-05
  -7.45706376120e-05
  -6.07960220572e-05
  -4.09504512515e-05
  -1.70156597400e-05
  +8.61827760423e-06
  +3.33916130552e-05
  +5.48305366927e-05
  +7.07942055183e-05
  +7.96885232444e-05
  +8.06253231836e-05
  +7.35110585870e-05
  +5.90561440132e-05
  +3.87040149175e-05
  +1.44869894143e-05
  -1.11766744661e-05
  -3.57242606196e-05
  -5.67045019686e-05
  -7.20223585130e-05
  -8.01482233411e-05
  -8.02706657562e-05
  -7.23774589326e-05
  -5.72568008584e-05
  -3.64186066470e-05
  -1.19437317889e-05
  +1.37238174258e-05
  +3.80209369116e-05
  +5.85213706326e-05
  +7.31779911055e-05
  +8.05272209747e-05
  +7.98351825744e-05
  +7.11709813123e-05
  +5.53998049578e-05
  +3.40965279256e-05
  +9.38844783703e-06
  -1.62571416649e-05
  -4.02793293426e-05
  -6.02793132359e-05
  -7.42599396628e-05
  -8.08251345219e-05
  -7.93193121309e-05
  -6.98928405473e-05
  -5.34870261509e-05
  -3.17401168922e-05
  -6.82371051486e-06
  +1.87740963401e-05
  +4.24971639037e-05
  +6.19765596815e-05
  +7.52671147570e-05
  +8.10416640108e-05
  +7.87235738638e-05
  +6.85443236158e-05
  +5.15203904411e-05
  +2.93517462501e-05
  +4.25210229389e-06
  -2.12721470919e-05
  -4.46722074226e-05
  -6.36115897719e-05
  -7.61986065148e-05
  -8.11765894257e-05
  -7.80483512290e-05
  -6.71263773347e-05
  -4.95017481762e-05
  -2.69341194346e-05
  -1.67657421570e-06
  +2.37483960042e-05
  +4.68019273531e-05
  +6.51819336999e-05
  +7.70530229991e-05
  +8.12297731154e-05
  +7.72950532874e-05
  +6.56418201064e-05
  +4.74337435608e-05
  +2.44890403925e-05
  -9.01874544979e-07
</dep>
<dep V5.It time>
  -8.75666867342e-06
  -8.83915244398e-08
  -8.89444319880e-08
  -8.96253022570e-08
  -9.04144749547e-08
  -9.12253465842e-08
  -9.19855038601e-08
  -9.26210419987e-08
  -9.30694468853e-08
  -9.32906581245e-08
  -9.32538832095e-08
  -9.29657431471e-08
  -9.24624611753e-08
  -9.17876767743e-08
  -9.10067308643e-08
  -9.02007074238e-08
  -8.94500938430e-08
  -8.88298453820e-08
  -8.84018996772e-08
  -8.82089902261e-08
  -8.82703811174e-08
  -8.85799415933e-08
  -8.91067601222e-08
  -8.97982293395e-08
  -9.05853011377e-08
  -9.13893798332e-08
  -9.21301723818e-08
  -9.27337044413e-08
  -9.31397091039e-08
  -9.33076431982e-08
  -9.32207376540e-08
  -9.28876702127e-08
  -9.23417006961e-08
  -9.16373479490e-08
  -9.08449475109e-08
  -9.00436262710e-08
  -8.93134028232e-08
  -8.87271952028e-08
  -8.83435412373e-08
  -8.82007513097e-08
  -8.83130845466e-08
  -8.86693231595e-08
  -8.92338943993e-08
  -8.99504210011e-08
  -9.07473526641e-08
  -9.15451091301e-08
  -9.22640286648e-08
  -9.28323211279e-08
  -9.31932385464e-08
  -9.33107400723e-08
  -9.31730927070e-08
  -9.27940411684e-08
  -9.22114371357e-08
  -9.14834577058e-08
  -9.06827977161e-08
  -8.98894088447e-08
  -8.91825175686e-08
  -8.86327120333e-08
  -8.82948950262e-08
  -8.82027997639e-08
  -8.83656231070e-08
  -8.87671054480e-08
  -8.93671560899e-08
  -9.01058548853e-08
  -9.09094374551e-08
  -9.16976594096e-08
  -9.23918110964e-08
  -9.29225756502e-08
  -9.32369525379e-08
  -9.33035483582e-08
  -9.31157134294e-08
  -9.26922041001e-08
  -9.20753114919e-08
  -9.13266366961e-08
  -9.05209411288e-08
  -8.97386793240e-08
  -8.90579666203e-08
  -8.85467770435e-08
  -8.82561572642e-08
  -8.82151275026e-08
  -8.84277853199e-08
  -8.88728947610e-08
  -8.95084328400e-08
  -9.02656836765e-08
  -9.10711247224e-08
  -9.18450047035e-08
  -9.25119479529e-08
  -9.29967772846e-08
  -9.32710015067e-08
  -9.32856734366e-08
  -9.30483722229e-08
  -9.25821276973e-08
  -9.19334916787e-08
  -9.11672354813e-08
  -9.03599187951e-08
  -8.95922915851e-08
  -8.89408645268e-08
  -8.84706547961e-08
  -8.82286160443e-08
  -8.82385208636e-08
</dep>
<dep V1.It time>
  -1.24999997759e-04
  -1.09841633921e-04
  -1.01827721542e-04
  -9.74982405771e-05
  -9.52513314809e-05
  -9.43469698124e-05
  -9.44182185392e-05
  -9.52411775410e-05
  -9.66308873037e-05
  -9.83998528170e-05
  -1.00348292857e-04
  -1.02270745277e-04
  -1.03969977952e-04
  -1.05273902832e-04
  -1.06051122706e-04
  -1.06223473208e-04
  -1.05773481657e-04
  -1.04745958915e-04
  -1.03243452181e-04
  -1.01415970481e-04
  -9.94459888070e-05
  -9.75302188451e-05
  -9.58599621237e-05
  -9.46020053334e-05
  -9.38819645581e-05
  -9.37717411425e-05
  -9.42823416002e-05
  -9.53627784394e-05
  -9.69051616190e-05
  -9.87554721866e-05
  -1.00728942258e-04
  -1.02628505519e-04
  -1.04264475828e-04
  -1.05473488845e-04
  -1.06134815234e-04
  -1.06182416420e-04
  -1.05611539054e-04
  -1.04479189673e-04
  -1.02898442157e-04
  -1.01027146417e-04
  -9.90521658633e-05
  -9.71707176389e-05
  -9.55706789576e-05
  -9.44118261051e-05
  -9.38098795367e-05
  -9.38249482911e-05
  -9.44555276362e-05
  -9.56386493282e-05
  -9.72561694798e-05
  -9.91465661446e-05
  -1.01121068538e-04
  -1.02982507264e-04
  -1.04545003213e-04
  -1.05652529033e-04
  -1.06194489671e-04
  -1.06116766150e-04
  -1.05427119766e-04
  -1.04194417065e-04
  -1.02541752984e-04
  -1.00634158864e-04
  -9.86621227881e-05
  -9.68225678710e-05
  -9.52991879546e-05
  -9.42441043516e-05
  -9.37626753521e-05
  -9.39029753798e-05
  -9.46509943875e-05
  -9.59320368692e-05
  -9.76181807866e-05
  -9.95410515774e-05
  -1.01508635663e-04
  -1.03324454495e-04
  -1.04807184464e-04
  -1.05808763470e-04
  -1.06229176073e-04
  -1.06026440809e-04
  -1.05220802370e-04
  -1.03892710008e-04
  -1.02174784058e-04
  -1.00238572765e-04
  -9.82774218600e-05
  -9.64871674887e-05
  -9.50465767289e-05
  -9.40995136290e-05
  -9.37405434693e-05
  -9.40055199869e-05
  -9.48679758492e-05
  -9.62417586741e-05
  -9.79897257480e-05
  -9.99373204514e-05
  -1.01890061632e-04
  -1.03652950972e-04
  -1.05049949359e-04
  -1.05941555218e-04
  -1.06238734720e-04
  -1.05911809642e-04
  -1.04993428532e-04
  -1.03575298700e-04
  -1.01799031339e-04
  -9.98419560645e-05
</dep>
<dep Vout.Vt time>
  +8.96290505729e-08
  +6.06334643146e-01
  +9.26891138315e-01
  +1.10007037692e+00
  +1.18994674077e+00
  +1.22612120750e+00
  +1.22327125843e+00
  +1.19035289836e+00
  +1.13476450785e+00
  +1.06400588732e+00
  +9.86068285721e-01
  +9.09170188937e-01
  +8.41200881931e-01
  +7.89043886713e-01
  +7.57955091747e-01
  +7.51061071663e-01
  +7.69060733734e-01
  +8.10161643411e-01
  +8.70261912768e-01
  +9.43361180761e-01
  +1.02216044772e+00
  +1.09879124620e+00
  +1.16560151505e+00
  +1.21591978666e+00
  +1.24472141768e+00
  +1.24913035430e+00
  +1.22870633599e+00
  +1.18548886242e+00
  +1.12379353524e+00
  +1.04978111254e+00
  +9.70842309698e-01
  +8.94859779252e-01
  +8.29420966899e-01
  +7.81060446187e-01
  +7.54607390620e-01
  +7.52703343199e-01
  +7.75538437847e-01
  +8.20832413060e-01
  +8.84062313729e-01
  +9.58914143323e-01
  +1.03791336547e+00
  +1.11317129444e+00
  +1.17717284170e+00
  +1.22352695580e+00
  +1.24760481853e+00
  +1.24700206836e+00
  +1.22177889455e+00
  +1.17445402687e+00
  +1.10975322081e+00
  +1.03413735421e+00
  +9.55157258495e-01
  +8.80699709447e-01
  +8.18199871470e-01
  +7.73898838668e-01
  +7.52220413143e-01
  +7.55329354005e-01
  +7.82915209369e-01
  +8.32223317388e-01
  +8.98329880621e-01
  +9.74633645444e-01
  +1.05351508848e+00
  +1.12709728516e+00
  +1.18803248182e+00
  +1.23023582594e+00
  +1.24949298592e+00
  +1.24388098481e+00
  +1.21396022450e+00
  +1.16271852523e+00
  +1.09527276853e+00
  +1.01835793690e+00
  +9.39654573483e-01
  +8.67021820204e-01
  +8.07712621440e-01
  +7.67649461194e-01
  +7.50832957089e-01
  +7.58942367631e-01
  +7.91167905212e-01
  +8.44291599689e-01
  +9.13008637688e-01
  +9.90457089410e-01
  +1.06890312560e+00
  +1.14051330045e+00
  +1.19813693084e+00
  +1.23601945484e+00
  +1.25037826123e+00
  +1.23977920052e+00
  +1.20528096603e+00
  +1.15032965304e+00
  +1.08041097008e+00
  +1.00250718194e+00
  +9.24397534735e-01
  +8.53881961131e-01
  +7.98002025654e-01
  +7.62337791277e-01
  +7.50450611194e-01
  +7.63527614323e-01
  +8.00262858719e-01
  +8.56988051981e-01
  +9.28038746432e-01
  +1.00632175742e+00
</dep>
<dep _net3.Vt time>
  +3.60919701949e-01
  +1.00573812487e+00
  +1.00489775904e+00
  +1.00371101699e+00
  +1.00226056408e+00
  +1.00067339097e+00
  +9.99099184411e-01
  +9.97691116850e-01
  +9.96587886797e-01
  +9.95898989976e-01
  +9.95692068639e-01
  +9.95988422514e-01
  +9.96757837221e-01
  +9.97923162410e-01
  +9.99369205102e-01
  +1.00095080430e+00
  +1.00251002016e+00
  +1.00389115056e+00
  +1.00495627783e+00
  +1.00559904021e+00
  +1.00575525265e+00
  +1.00540931599e+00
  +1.00459577465e+00
  +1.00339586702e+00
  +1.00192941319e+00
  +1.00034284994e+00
  +9.98794607930e-01
  +9.97439291153e-01
  +9.96412238507e-01
  +9.95816009173e-01
  +9.95710141281e-01
  +9.96105206560e-01
  +9.96961754675e-01
  +9.98194252646e-01
  +9.99679625980e-01
  +1.00126954862e+00
  +1.00280525444e+00
  +1.00413339129e+00
  +1.00512133440e+00
  +1.00567042997e+00
  +1.00572584656e+00
  +1.00528205037e+00
  +1.00438335792e+00
  +1.00311951061e+00
  +1.00161671341e+00
  +1.00002503230e+00
  +9.98503408984e-01
  +9.97203789375e-01
  +9.96255950577e-01
  +9.95754541655e-01
  +9.95749632183e-01
  +9.96241712409e-01
  +9.97181644302e-01
  +9.98475568364e-01
  +9.99994276231e-01
  +1.00158611313e+00
  +1.00309212179e+00
  +1.00436191554e+00
  +1.00526869564e+00
  +1.00572191303e+00
  +1.00567631045e+00
  +1.00513644167e+00
  +1.00415621677e+00
  +1.00283351883e+00
  +1.00130042950e+00
  +9.99710039660e-01
  +9.98221162079e-01
  +9.96982472745e-01
  +9.96117664408e-01
  +9.95713094894e-01
  +9.95809163611e-01
  +9.96396277350e-01
  +9.97415808247e-01
  +9.98765948225e-01
  +1.00031187532e+00
  +1.00189921672e+00
  +1.00336946405e+00
  +1.00457580170e+00
  +1.00539776749e+00
  +1.00575328176e+00
  +1.00560684364e+00
  +1.00497307612e+00
  +1.00391456376e+00
  +1.00253858154e+00
  +1.00098172737e+00
  +9.99399444704e-01
  +9.97949683130e-01
  +9.96776945304e-01
  +9.95997229206e-01
  +9.95691299579e-01
  +9.95887973966e-01
  +9.96567823603e-01
  +9.97662960188e-01
  +9.99064025820e-01
  +1.00063110877e+00
  +1.00220763971e+00
  +1.00363624595e+00
  +1.00477430227e+00
  +1.00550816491e+00
  +1.00576348308e+00
</dep>
<dep _net4.Vt time>
  +5.00000000000e+00
  +5.00000000000e+00
  +5.00000000000e+00
  +5.00000000000e+00
  +5.00000000000e+00
  +5.00000000000e+00
  +5.00000000000e+00
  +5.00000000000e+00
  +5.00000000000e+00
  +5.00000000000e+00
  +5.00000000000e+00
  +5.00000000000e+00
  +5.00000000000e+00
  +5.00000000000e+00
  +5.00000000000e+00
  +5.00000000000e+00
  +5.00000000000e+00
  +5.00000000000e+00
  +5.00000000000e+00
  +5.00000000000e+00
  +5.00000000000e+00
  +5.00000000000e+00
  +5.00000000000e+00
  +5.00000000000e+00
  +5.00000000000e+00
  +5.00000000000e+00
  +5.00000000000e+00
  +5.00000000000e+00
  +5.00000000000e+00
  +5.00000000000e+00
  +5.00000000000e+00
  +5.00000000000e+00
  +5.00000000000e+00
  +5.00000000000e+00
  +5.00000000000e+00
  +5.00000000000e+00
  +5.00000000000e+00
  +5.00000000000e+00
  +5.00000000000e+00
  +5.00000000000e+00
  +5.00000000000e+00
  +5.00000000000e+00
  +5.00000000000e+00
  +5.00000000000e+00
  +5.00000000000e+00
  +5.00000000000e+00
  +5.00000000000e+00
  +5.00000000000e+00
  +5.00000000000e+00
  +5.00000000000e+00
  +5.00000000000e+00
  +5.00000000000e+00
  +5.00000000000e+00
  +5.00000000000e+00
  +5.00000000000e+00
  +5.00000000000e+00
  +5.00000000000e+00
  +5.00000000000e+00
  +5.00000000000e+00
  +5.00000000000e+00
  +5.00000000000e+00
  +5.00000000000e+00
  +5.00000000000e+00
  +5.00000000000e+00
  +5.00000000000e+00
  +5.00000000000e+00
  +5.00000000000e+00
  +5.00000000000e+00
  +5.00000000000e+00
  +5.00000000000e+00
  +5.00000000000e+00
  +5.00000000000e+00
  +5.00000000000e+00
  +5.00000000000e+00
  +5.00000000000e+00
  +5.00000000000e+00
  +5.00000000000e+00
  +5.00000000000e+00
  +5.00000000000e+00
  +5.00000000000e+00
  +5.00000000000e+00
  +5.00000000000e+00
  +5.00000000000e+00
  +5.00000000000e+00
  +5.00000000000e+00
  +5.00000000000e+00
  +5.00000000000e+00
  +5.00000000000e+00
  +5.00000000000e+00
  +5.00000000000e+00
  +5.00000000000e+00
  +5.00000000000e+00
  +5.00000000000e+00
  +5.00000000000e+00
  +5.00000000000e+00
  +5.00000000000e+00
  +5.00000000000e+00
  +5.00000000000e+00
  +5.00000000000e+00
  +5.00000000000e+00
</dep>
<dep _net1.Vt time>
  +1.00000000000e+00
  +1.00000000000e+00
  +1.00000000000e+00
  +1.00000000000e+00
  +1.00000000000e+00
  +1.00000000000e+00
  +1.00000000000e+00
  +1.00000000000e+00
  +1.00000000000e+00
  +1.00000000000e+00
  +1.00000000000e+00
  +1.00000000000e+00
  +1.00000000000e+00
  +1.00000000000e+00
  +1.00000000000e+00
  +1.00000000000e+00
  +1.00000000000e+00
  +1.00000000000e+00
  +1.00000000000e+00
  +1.00000000000e+00
  +1.00000000000e+00
  +1.00000000000e+00
  +1.00000000000e+00
  +1.00000000000e+00
  +1.00000000000e+00
  +1.00000000000e+00
  +1.00000000000e+00
  +1.00000000000e+00
  +1.00000000000e+00
  +1.00000000000e+00
  +1.00000000000e+00
  +1.00000000000e+00
  +1.00000000000e+00
  +1.00000000000e+00
  +1.00000000000e+00
  +1.00000000000e+00
  +1.00000000000e+00
  +1.00000000000e+00
  +1.00000000000e+00
