<Qucs Dataset 0.0.18>
<indep time 100>
  +0.00000000000e+00
  +5.05050505051e-04
  +1.01010101010e-03
  +1.51515151515e-03
  +2.02020202020e-03
  +2.52525252525e-03
  +3.03030303030e-03
  +3.53535353535e-03
  +4.04040404040e-03
  +4.54545454545e-03
  +5.05050505051e-03
  +5.55555555556e-03
  +6.06060606061e-03
  +6.56565656566e-03
  +7.07070707071e-03
  +7.57575757576e-03
  +8.08080808081e-03
  +8.58585858586e-03
  +9.09090909091e-03
  +9.59595959596e-03
  +1.01010101010e-02
  +1.06060606061e-02
  +1.11111111111e-02
  +1.16161616162e-02
  +1.21212121212e-02
  +1.26262626263e-02
  +1.31313131313e-02
  +1.36363636364e-02
  +1.41414141414e-02
  +1.46464646465e-02
  +1.51515151515e-02
  +1.56565656566e-02
  +1.61616161616e-02
  +1.66666666667e-02
  +1.71717171717e-02
  +1.76767676768e-02
  +1.81818181818e-02
  +1.86868686869e-02
  +1.91919191919e-02
  +1.96969696970e-02
  +2.02020202020e-02
  +2.07070707071e-02
  +2.12121212121e-02
  +2.17171717172e-02
  +2.22222222222e-02
  +2.27272727273e-02
  +2.32323232323e-02
  +2.37373737374e-02
  +2.42424242424e-02
  +2.47474747475e-02
  +2.52525252525e-02
  +2.57575757576e-02
  +2.62626262626e-02
  +2.67676767677e-02
  +2.72727272727e-02
  +2.77777777778e-02
  +2.82828282828e-02
  +2.87878787879e-02
  +2.92929292929e-02
  +2.97979797980e-02
  +3.03030303030e-02
  +3.08080808081e-02
  +3.13131313131e-02
  +3.18181818182e-02
  +3.23232323232e-02
  +3.28282828283e-02
  +3.33333333333e-02
  +3.38383838384e-02
  +3.43434343434e-02
  +3.48484848485e-02
  +3.53535353535e-02
  +3.58585858586e-02
  +3.63636363636e-02
  +3.68686868687e-02
  +3.73737373737e-02
  +3.78787878788e-02
  +3.83838383838e-02
  +3.88888888889e-02
  +3.93939393939e-02
  +3.98989898990e-02
  +4.04040404040e-02
  +4.09090909091e-02
  +4.14141414141e-02
  +4.19191919192e-02
  +4.24242424242e-02
  +4.29292929293e-02
  +4.34343434343e-02
  +4.39393939394e-02
  +4.44444444444e-02
  +4.49494949495e-02
  +4.54545454545e-02
  +4.59595959596e-02
  +4.64646464646e-02
  +4.69696969697e-02
  +4.74747474747e-02
  +4.79797979798e-02
  +4.84848484848e-02
  +4.89898989899e-02
  +4.94949494949e-02
  +5.00000000000e-02
</indep>
<dep V1.It time>
  -6.21842451110e-11
  -5.50220742415e-11
  -4.01199717227e-11
  -2.15353633159e-11
  -9.26664372030e-13
  +1.97749385758e-11
  +3.86302293153e-11
  +5.38402069707e-11
  +6.38939475399e-11
  +6.77139024139e-11
  +6.47881802123e-11
  +5.52702435957e-11
  +4.00191797446e-11
  +2.05537539558e-11
  -1.09431807506e-12
  -2.27493227078e-11
  -4.18549320157e-11
  -5.65586282029e-11
  -6.54068549593e-11
  -6.76149788729e-11
  -6.29927635368e-11
  -5.24493833112e-11
  -3.67682289613e-11
  -1.76333687010e-11
  +3.14634474646e-12
  +2.36267403631e-11
  +4.18851350083e-11
  +5.61686262095e-11
  +6.50419073423e-11
  +6.75318211339e-11
  +6.33730275794e-11
  +5.25021656551e-11
  +3.62713129006e-11
  +1.63149381801e-11
  -5.49097077716e-12
  -2.68271322845e-11
  -4.51927267368e-11
  -5.88351541637e-11
  -6.62747219036e-11
  -6.72410881515e-11
  -6.13175093756e-11
  -4.96664970716e-11
  -3.31599992379e-11
  -1.34395215982e-11
  +7.44024188752e-12
  +2.76318746808e-11
  +4.51210904672e-11
  +5.85334172179e-11
  +6.60839825189e-11
  +6.72284947512e-11
  +6.17146603127e-11
  +4.97648362486e-11
  +3.26129880280e-11
  +1.20166974703e-11
  -9.86676383264e-12
  -3.06848184452e-11
  -4.82418419387e-11
  -6.07478533322e-11
  -6.69941277468e-11
  -6.65946183537e-11
  -5.94123495275e-11
  -4.66971554613e-11
  -2.93181293476e-11
  -9.29778330844e-12
  +1.15984627806e-11
  +3.14152922303e-11
  +4.82802238033e-11
  +6.05497498053e-11
  +6.69564147566e-11
  +6.67480860873e-11
  +5.98056095966e-11
  +4.65892333348e-11
  +2.87050778320e-11
  +7.55517171702e-12
  -1.41833401814e-11
  -3.46325729014e-11
  -5.12998501250e-11
  -6.26528017028e-11
  -6.74346015590e-11
  -6.56910766357e-11
  -5.73734192734e-11
  -4.35426634525e-11
  -2.55896800693e-11
  -5.23824050666e-12
  +1.57133938956e-11
  +3.50894529096e-11
  +5.11701312178e-11
  +6.23382069733e-11
  +6.74893568651e-11
  +6.57801592282e-11
  +5.75292495878e-11
  +4.33260730573e-11
  +2.45579750645e-11
  +3.29515302885e-12
  -1.84374109407e-11
  -3.81965815614e-11
  -5.39144903300e-11
  -6.40179198572e-11
  -6.75822965117e-11
  -6.43881462356e-11
</dep>
<dep V2.It time>
  +5.54350272605e-11
  +5.00585689008e-11
  +3.70643198115e-11
  +2.00745382365e-11
  +9.83396087040e-13
  -1.82045804388e-11
  -3.54722462523e-11
  -4.90338295138e-11
  -5.75375689736e-11
  -6.01979192333e-11
  -5.68468433818e-11
  -4.79116642761e-11
  -3.43375191488e-11
  -1.74746366893e-11
  +1.05301547422e-12
  +1.93603452654e-11
  +3.59479141196e-11
  +4.90893540235e-11
  +5.74710181409e-11
  +6.01974207216e-11
  +5.70320934139e-11
  +4.78242389217e-11
  +3.37886287424e-11
  +1.62308361399e-11
  -3.03919586697e-12
  -2.19951179706e-11
  -3.86480336498e-11
  -5.12853217203e-11
  -5.86608973540e-11
  -6.01128760354e-11
  -5.54779576197e-11
  -4.56438671584e-11
  -3.12979911478e-11
  -1.38447799586e-11
  +4.80203222820e-12
  +2.28832023232e-11
  +3.88987117156e-11
  +5.11924382673e-11
  +5.86113986461e-11
  +6.00287969224e-11
  +5.56461945240e-11
  +4.53820769979e-11
  +3.05130189661e-11
  +1.25737291532e-11
  -6.80152190697e-12
  -2.54565166079e-11
  -4.15443304821e-11
  -5.31025636217e-11
  -5.94392611923e-11
  -5.96787873774e-11
  -5.38995302459e-11
  -4.29724506015e-11
  -2.79045545637e-11
  -1.01765228778e-11
  +8.52982442379e-12
  +2.64286332095e-11
  +4.18165726599e-11
  +5.31970610544e-11
  +5.93954555437e-11
  +5.96118595817e-11
  +5.40503582898e-11
  +4.27413787068e-11
  +2.72112342329e-11
  +8.73433571894e-12
  -1.06579268472e-11
  -2.89220824730e-11
  -4.41528364442e-11
  -5.48049242351e-11
  -5.98558570688e-11
  -5.88895650726e-11
  -5.21024531480e-11
  -4.03561729880e-11
  -2.45138547725e-11
  -6.56279108087e-12
  +1.22330917990e-11
  +2.96501322141e-11
  +4.43405902425e-11
  +5.47826674298e-11
  +5.99442695161e-11
  +5.89512364849e-11
  +5.21030195980e-11
  +3.99128700043e-11
  +2.35739467677e-11
  +4.75151800555e-12
  -1.44646196950e-11
  -3.22675998550e-11
  -4.66995380230e-11
  -5.62794469660e-11
  -6.01659881012e-11
  -5.81052715096e-11
  -5.02224673248e-11
  -3.74830304349e-11
  -2.11569072462e-11
  -2.70024489789e-12
  +1.58925193981e-11
  +3.29827104125e-11
  +4.69277673200e-11
  +5.63467539142e-11
  +6.02508479024e-11
  +5.81599411861e-11
</dep>
<dep V3.It time>
  -4.25531495292e-03
  -1.82969528585e-03
  -1.71675051448e-03
  -1.64488830661e-03
  -1.62122750788e-03
  -1.64813095319e-03
  -1.72291212465e-03
  -1.83810354164e-03
  -1.98220244677e-03
  -2.14081944550e-03
  -2.29811539893e-03
  -2.43838308477e-03
  -2.54761568550e-03
  -2.61490547778e-03
  -2.63353305338e-03
  -2.60163473398e-03
  -2.52240162071e-03
  -2.40374355546e-03
  -2.25750943105e-03
  -2.09830186024e-03
  -1.94204447250e-03
  -1.80426066864e-03
  -1.69878959797e-03
  -1.63615448082e-03
  -1.62259295274e-03
  -1.65945931845e-03
  -1.74307218506e-03
  -1.86508215864e-03
  -2.01330559598e-03
  -2.17292899759e-03
  -2.32802710224e-03
  -2.46312333728e-03
  -2.56470371154e-03
  -2.62265395552e-03
  -2.63115682034e-03
  -2.58937440182e-03
  -2.50146329270e-03
  -2.37630988536e-03
  -2.22622332256e-03
  -2.06631372741e-03
  -1.91250336982e-03
  -1.78019305819e-03
  -1.68257642699e-03
  -1.62939405986e-03
  -1.62595968069e-03
  -1.67261953574e-03
  -1.76470965882e-03
  -1.89303602366e-03
  -2.04478444179e-03
  -2.20480096655e-03
  -2.35713163564e-03
  -2.48649141953e-03
  -2.58004304710e-03
  -2.62841320750e-03
  -2.62676794310e-03
  -2.57527742369e-03
  -2.47908185656e-03
  -2.34778154541e-03
  -2.19450377892e-03
  -2.03453860405e-03
  -1.88386535943e-03
  -1.75752993012e-03
  -1.66814429246e-03
  -1.62464953811e-03
  -1.63137749060e-03
  -1.68765613257e-03
  -1.78786560462e-03
  -1.92199921289e-03
  -2.07666267512e-03
  -2.23641164372e-03
  -2.38529139944e-03
  -2.50844085691e-03
  -2.59355949207e-03
  -2.63214747298e-03
  -2.62036508382e-03
  -2.55937039186e-03
  -2.45523539370e-03
  -2.31846204751e-03
  -2.16252179119e-03
  -2.00314518054e-03
  -1.85619278761e-03
  -1.73634018250e-03
  -1.65556613749e-03
  -1.62192449772e-03
  -1.63873435531e-03
  -1.70439564184e-03
  -1.81230553916e-03
  -1.95176190309e-03
  -2.10866437605e-03
  -2.26751101565e-03
  -2.41242283275e-03
  -2.52884282008e-03
  -2.60519083917e-03
  -2.63385337682e-03
  -2.61197013358e-03
  -2.54169430098e-03
  -2.43007947483e-03
  -2.28825881336e-03
  -2.13039414091e-03
  -1.97224947077e-03
</dep>
<dep V4.It time>
  +4.33868558618e-03
  -6.23199866397e-04
  -8.59864102950e-04
  -1.01054496223e-03
  -1.06031530057e-03
  -1.00420492333e-03
  -8.47816887321e-04
  -6.06767752227e-04
  -3.05128145813e-04
  +2.69808751333e-05
  +3.56395646204e-04
  +6.50221544761e-04
  +8.79117773416e-04
  +1.02022726647e-03
  +1.05945914539e-03
  +9.92888324064e-04
  +8.27174546924e-04
  +5.78861044916e-04
  +2.72743773000e-04
  -6.06090823742e-05
  -3.87856155013e-04
  -6.76487165980e-04
  -8.97511806539e-04
  -1.02887745269e-03
  -1.05750185419e-03
  -9.80526484550e-04
  -8.05637932118e-04
  -5.50300176773e-04
  -2.40010675961e-04
  +9.42201174035e-05
  +4.19046751444e-04
  +7.02056228845e-04
  +9.14938410363e-04
  +1.03649682739e-03
  +1.05452902758e-03
  +9.67257854151e-04
  +7.83365022091e-04
  +5.21439540372e-04
  +2.07241979383e-04
  -1.27595295244e-04
  -4.49732513303e-04
  -7.26914272559e-04
  -9.31501166898e-04
  -1.04307821264e-03
  -1.05049748128e-03
  -9.53011134127e-04
  -7.60363532062e-04
  -4.91788147327e-04
  -1.74103897599e-04
  +1.60964535368e-04
  +4.80010161206e-04
  +7.51019632553e-04
  +9.47098725088e-04
  +1.04860144483e-03
  +1.04538418783e-03
  +9.37780318707e-04
  +7.36531803465e-04
  +4.61723266966e-04
  +1.40829736522e-04
  -1.94138394460e-04
  -5.09720278475e-04
  -7.74402634952e-04
  -9.61762506632e-04
  -1.05305839501e-03
  -1.03919787905e-03
  -9.21565385991e-04
  -7.11907433626e-04
  -4.31159996395e-04
  -1.07357885774e-04
  +2.27164743324e-04
  +5.38997867440e-04
  +7.97014538269e-04
  +9.75443257629e-04
  +1.05646639387e-03
  +1.03202162003e-03
  +9.04511266395e-04
  +6.86628702082e-04
  +4.00347888283e-04
  +7.38650405130e-05
  -2.59885076740e-04
  -5.67689207000e-04
  -8.18807849336e-04
  -9.88142850304e-04
  -1.05881011865e-03
  -1.02383736096e-03
  -8.86552400740e-04
  -6.60760681105e-04
  -3.68855054808e-04
  -4.03507497971e-05
  +2.92297085967e-04
  +5.95834769152e-04
  +8.39770925149e-04
  +9.99841579248e-04
  +1.06008417259e-03
  +1.01448701079e-03
  +8.67536241395e-04
  +6.33981449898e-04
  +3.37118836981e-04
  +6.59229063260e-06
  -3.24592547122e-04
</dep>
<dep V5.It time>
  -6.30181017172e-06
  -8.94612514869e-08
  -8.99253363477e-08
  -9.04753096339e-08
  -9.10530581707e-08
  -9.16011041051e-08
  -9.20647215364e-08
  -9.23976146639e-08
  -9.25665415233e-08
  -9.25546334556e-08
  -9.23630795735e-08
  -9.20110080193e-08
  -9.15335758713e-08
  -9.09784584371e-08
  -9.04010885031e-08
  -8.98591944351e-08
  -8.94073616100e-08
  -8.90901316310e-08
  -8.89392131942e-08
  -8.89696767191e-08
  -8.91875297425e-08
  -8.95495842290e-08
  -9.00324904976e-08
  -9.05916044765e-08
  -9.11672580027e-08
  -9.17018059220e-08
  -9.21418694740e-08
  -9.24435048961e-08
  -9.25765915492e-08
  -9.25281773644e-08
  -9.23023513239e-08
  -9.19198691908e-08
  -9.14232681028e-08
  -9.08611502955e-08
  -9.02882620793e-08
  -8.97606086318e-08
  -8.93321201629e-08
  -8.90522406184e-08
  -8.89310135707e-08
  -8.89976059163e-08
  -8.92442185924e-08
  -8.96311124827e-08
  -9.01417168123e-08
  -9.07067905552e-08
  -9.12804511160e-08
  -9.17994076623e-08
  -9.22131099942e-08
  -9.24820307461e-08
  -9.25785547944e-08
  -9.24957556420e-08
  -9.22362078025e-08
  -9.18296463266e-08
  -9.13137867261e-08
  -9.07472861361e-08
  -9.01765518578e-08
  -8.96650643201e-08
  -8.92624794089e-08
  -8.90126197420e-08
  -8.89278173809e-08
  -8.90309179827e-08
  -8.93061763673e-08
  -8.97261727618e-08
  -9.02505067418e-08
  -9.08222697035e-08
  -9.13889604524e-08
  -9.18924068920e-08
  -9.22823359769e-08
  -9.25198102612e-08
  -9.25811160938e-08
  -9.24601316109e-08
  -9.21689231028e-08
  -9.17360972230e-08
  -9.12059276444e-08
  -9.06307910110e-08
  -9.00674480170e-08
  -8.95739043160e-08
  -8.91989075808e-08
  -8.89871277152e-08
  -8.89329791083e-08
  -8.90782465973e-08
  -8.93826894730e-08
  -8.98250109780e-08
  -9.03640176136e-08
  -9.09396333733e-08
  -9.14970241478e-08
  -9.19787634818e-08
  -9.23361815453e-08
  -9.25457702886e-08
  -9.25727826166e-08
  -9.24099101153e-08
  -9.20932363684e-08
  -9.16348276577e-08
  -9.10891115789e-08
  -9.05144249623e-08
  -8.99619484456e-08
  -8.94888958206e-08
  -8.91419950746e-08
  -8.89563236805e-08
  -8.89503256398e-08
  -8.91245999026e-08
</dep>
<dep _net1.Vt time>
  +1.00000000000e+00
  +1.00000000000e+00
  +1.00000000000e+00
  +1.00000000000e+00
  +1.00000000000e+00
  +1.00000000000e+00
  +1.00000000000e+00
  +1.00000000000e+00
  +1.00000000000e+00
  +1.00000000000e+00
  +1.00000000000e+00
  +1.00000000000e+00
  +1.00000000000e+00
  +1.00000000000e+00
  +1.00000000000e+00
  +1.00000000000e+00
  +1.00000000000e+00
  +1.00000000000e+00
  +1.00000000000e+00
  +1.00000000000e+00
  +1.00000000000e+00
  +1.00000000000e+00
  +1.00000000000e+00
  +1.00000000000e+00
  +1.00000000000e+00
  +1.00000000000e+00
  +1.00000000000e+00
  +1.00000000000e+00
  +1.00000000000e+00
  +1.00000000000e+00
  +1.00000000000e+00
  +1.00000000000e+00
  +1.00000000000e+00
  +1.00000000000e+00
  +1.00000000000e+00
  +1.00000000000e+00
  +1.00000000000e+00
  +1.00000000000e+00
  +1.00000000000e+00
  +1.00000000000e+00
  +1.00000000000e+00
  +1.00000000000e+00
  +1.00000000000e+00
  +1.00000000000e+00
  +1.00000000000e+00
  +1.00000000000e+00
  +1.00000000000e+00
  +1.00000000000e+00
  +1.00000000000e+00
  +1.00000000000e+00
  +1.00000000000e+00
  +1.00000000000e+00
  +1.00000000000e+00
  +1.00000000000e+00
  +1.00000000000e+00
  +1.00000000000e+00
  +1.00000000000e+00
  +1.00000000000e+00
  +1.00000000000e+00
  +1.00000000000e+00
  +1.00000000000e+00
  +1.00000000000e+00
  +1.00000000000e+00
  +1.00000000000e+00
  +1.00000000000e+00
  +1.00000000000e+00
  +1.00000000000e+00
  +1.00000000000e+00
  +1.00000000000e+00
  +1.00000000000e+00
  +1.00000000000e+00
  +1.00000000000e+00
  +1.00000000000e+00
  +1.00000000000e+00
  +1.00000000000e+00
  +1.00000000000e+00
  +1.00000000000e+00
  +1.00000000000e+00
  +1.00000000000e+00
  +1.00000000000e+00
  +1.00000000000e+00
  +1.00000000000e+00
  +1.00000000000e+00
  +1.00000000000e+00
  +1.00000000000e+00
  +1.00000000000e+00
  +1.00000000000e+00
  +1.00000000000e+00
  +1.00000000000e+00
  +1.00000000000e+00
  +1.00000000000e+00
  +1.00000000000e+00
  +1.00000000000e+00
  +1.00000000000e+00
  +1.00000000000e+00
  +1.00000000000e+00
  +1.00000000000e+00
  +1.00000000000e+00
  +1.00000000000e+00
  +1.00000000000e+00
</dep>
<dep _net3.Vt time>
  +4.16876118555e-01
  +1.00368676983e+00
  +1.00289734328e+00
  +1.00189036335e+00
  +1.00076723433e+00
  +9.99640048104e-01
  +9.98621362989e-01
  +9.97812902598e-01
  +9.97295397980e-01
  +9.97120525988e-01
  +9.97305748948e-01
  +9.97832570910e-01
  +9.98648384610e-01
  +9.99671724716e-01
  +1.00080040277e+00
  +1.00192170027e+00
  +1.00292351044e+00
  +1.00370594358e+00
  +1.00419086659e+00
  +1.00432985615e+00
  +1.00410934257e+00
  +1.00355071413e+00
  +1.00270962129e+00
  +1.00167106706e+00
  +1.00053825852e+00
  +9.99424257792e-01
  +9.98440306513e-01
  +9.97684659853e-01
  +9.97232775000e-01
  +9.97129726890e-01
  +9.97385741413e-01
  +9.97975547600e-01
  +9.98839936676e-01
  +9.99892967318e-01
  +1.00102897365e+00
  +1.00213502842e+00
  +1.00310018054e+00
  +1.00382894679e+00
  +1.00424745439e+00
  +1.00431454248e+00
  +1.00402289615e+00
  +1.00340306264e+00
  +1.00251471964e+00
  +1.00144887480e+00
  +1.00031048143e+00
  +9.99213534891e-01
  +9.98267956546e-01
  +9.97567840280e-01
  +9.97183151160e-01
  +9.97152301786e-01
  +9.97478325548e-01
  +9.98128744982e-01
  +9.99038667026e-01
  +1.00011668630e+00
  +1.00125631958e+00
  +1.00234271217e+00
  +1.00326772388e+00
  +1.00393929903e+00
  +1.00428986201e+00
  +1.00428458793e+00
  +1.00392403908e+00
  +1.00324420157e+00
  +1.00231246944e+00
  +1.00122310563e+00
  +1.00008402280e+00
  +9.99009106762e-01
  +9.98105696221e-01
  +9.97464003735e-01
  +9.97148107281e-01
  +9.97189551574e-01
  +9.97584129757e-01
  +9.98292664149e-01
  +9.99244150805e-01
  +1.00034367199e+00
  +1.00148141726e+00
  +1.00254407393e+00
  +1.00342468306e+00
  +1.00403754864e+00
  +1.00431779353e+00
  +1.00424032078e+00
  +1.00381122336e+00
  +1.00307478719e+00
  +1.00210403369e+00
  +1.00099566032e+00
  +9.99860239822e-01
  +9.98811370895e-01
  +9.97953344164e-01
  +9.97373345292e-01
  +9.97125978493e-01
  +9.97240840699e-01
  +9.97702531535e-01
  +9.98466044202e-01
  +9.99455554764e-01
  +1.00057175230e+00
  +1.00170350003e+00
  +1.00273762042e+00
  +1.00357089271e+00
  +1.00412015372e+00
  +1.00433054250e+00
  +1.00418105011e+00
</dep>
<dep Vout2.Vt time>
  +9.94931929906e-01
  +7.98492692565e-01
  +7.16889577190e-01
  +6.63705140214e-01
  +6.44212114948e-01
  +6.60356961498e-01
  +7.10527491583e-01
  +7.89713788224e-01
  +8.90008484859e-01
  +1.00139637729e+00
  +1.11275451958e+00
  +1.21296293658e+00
  +1.29201503978e+00
  +1.34201686288e+00
  +1.35797533561e+00
  +1.33829433484e+00
  +1.28494290995e+00
  +1.20324744052e+00
  +1.10136582502e+00
  +9.89471733811e-01
  +8.78757356337e-01
  +7.80220484905e-01
  +7.03757021317e-01
  +6.56998678824e-01
  +6.44601456236e-01
  +6.67803226715e-01
  +7.24287113330e-01
  +8.08412761433e-01
  +9.11779571866e-01
  +1.02405681225e+00
  +1.13404270750e+00
  +1.23076294069e+00
  +1.30454180672e+00
  +1.34803352729e+00
  +1.35687236603e+00
  +1.33018486168e+00
  +1.27062362926e+00
  +1.18421449602e+00
  +1.07945064986e+00
  +9.66881606452e-01
  +8.57714337236e-01
  +7.62883078497e-01
  +6.91838661340e-01
  +6.51676236209e-01
  +6.46404706455e-01
  +6.76553639422e-01
  +7.39110122115e-01
  +8.27827897725e-01
  +9.33848083553e-01
  +1.04658323089e+00
  +1.15479336049e+00
  +1.24762110968e+00
  +1.31585368642e+00
  +1.35265395265e+00
  +1.35434741154e+00
  +1.32076641924e+00
  +1.25526409840e+00
  +1.16437819474e+00
  +1.05719441485e+00
  +9.44405008102e-01
  +8.37276931983e-01
  +7.46507706647e-01
  +6.81157563901e-01
  +6.47766058057e-01
  +6.49657300754e-01
  +6.86642671193e-01
  +7.55028892959e-01
  +8.47987070821e-01
  +9.56234608945e-01
  +1.06896215016e+00
  +1.17491100974e+00
  +1.26350596352e+00
  +1.32589729970e+00
  +1.35585494906e+00
  +1.35039695952e+00
  +1.31005605106e+00
  +1.23884521774e+00
  +1.14395376450e+00
  +1.03471690375e+00
  +9.22161621422e-01
  +8.17485155058e-01
  +7.31144656366e-01
  +6.71768022740e-01
  +6.45275409771e-01
  +6.54283621152e-01
  +6.97949036752e-01
  +7.71877761950e-01
  +8.68742926081e-01
  +9.78740548500e-01
  +1.09101580714e+00
  +1.19433524300e+00
  +1.27832355820e+00
  +1.33462678665e+00
  +1.35762868611e+00
  +1.34503451905e+00
  +1.29807891189e+00
  +1.22147624675e+00
  +1.12286722864e+00
  +1.01209865272e+00
  +9.00231621356e-01
</dep>
<dep Vout.Vt time>
  +1.97212981190e-06
  +1.14004321565e+00
  +1.19312725819e+00
  +1.22690249589e+00
  +1.23802307130e+00
  +1.22537845200e+00
  +1.19023130141e+00
  +1.13609133543e+00
  +1.06836485002e+00
  +9.93814860616e-01
  +9.19885762505e-01
  +8.53959950157e-01
  +8.02620627817e-01
  +7.70994425445e-01
  +7.62239464912e-01
  +7.77231675031e-01
  +8.14471238265e-01
  +8.70240528933e-01
  +9.38970567407e-01
  +1.01379812569e+00
  +1.08723909793e+00
  +1.15199748574e+00
  +1.20156888896e+00
  +1.23100739402e+00
  +1.23738131221e+00
  +1.22005412033e+00
  +1.18075607302e+00
  +1.12341138544e+00
  +1.05374636989e+00
  +9.78723371131e-01
  +9.05827261946e-01
  +8.42332031479e-01
  +7.94589255576e-01
  +7.67352640905e-01
  +7.63356294442e-01
  +7.82994031147e-01
  +8.24312252430e-01
  +8.83134353879e-01
  +9.53675038397e-01
