<Qucs Dataset 0.0.18>
<indep time 100>
  +0.00000000000e+00
  +5.05050505051e-04
  +1.01010101010e-03
  +1.51515151515e-03
  +2.02020202020e-03
  +2.52525252525e-03
  +3.03030303030e-03
  +3.53535353535e-03
  +4.04040404040e-03
  +4.54545454545e-03
  +5.05050505051e-03
  +5.55555555556e-03
  +6.06060606061e-03
  +6.56565656566e-03
  +7.07070707071e-03
  +7.57575757576e-03
  +8.08080808081e-03
  +8.58585858586e-03
  +9.09090909091e-03
  +9.59595959596e-03
  +1.01010101010e-02
  +1.06060606061e-02
  +1.11111111111e-02
  +1.16161616162e-02
  +1.21212121212e-02
  +1.26262626263e-02
  +1.31313131313e-02
  +1.36363636364e-02
  +1.41414141414e-02
  +1.46464646465e-02
  +1.51515151515e-02
  +1.56565656566e-02
  +1.61616161616e-02
  +1.66666666667e-02
  +1.71717171717e-02
  +1.76767676768e-02
  +1.81818181818e-02
  +1.86868686869e-02
  +1.91919191919e-02
  +1.96969696970e-02
  +2.02020202020e-02
  +2.07070707071e-02
  +2.12121212121e-02
  +2.17171717172e-02
  +2.22222222222e-02
  +2.27272727273e-02
  +2.32323232323e-02
  +2.37373737374e-02
  +2.42424242424e-02
  +2.47474747475e-02
  +2.52525252525e-02
  +2.57575757576e-02
  +2.62626262626e-02
  +2.67676767677e-02
  +2.72727272727e-02
  +2.77777777778e-02
  +2.82828282828e-02
  +2.87878787879e-02
  +2.92929292929e-02
  +2.97979797980e-02
  +3.03030303030e-02
  +3.08080808081e-02
  +3.13131313131e-02
  +3.18181818182e-02
  +3.23232323232e-02
  +3.28282828283e-02
  +3.33333333333e-02
  +3.38383838384e-02
  +3.43434343434e-02
  +3.48484848485e-02
  +3.53535353535e-02
  +3.58585858586e-02
  +3.63636363636e-02
  +3.68686868687e-02
  +3.73737373737e-02
  +3.78787878788e-02
  +3.83838383838e-02
  +3.88888888889e-02
  +3.93939393939e-02
  +3.98989898990e-02
  +4.04040404040e-02
  +4.09090909091e-02
  +4.14141414141e-02
  +4.19191919192e-02
  +4.24242424242e-02
  +4.29292929293e-02
  +4.34343434343e-02
  +4.39393939394e-02
  +4.44444444444e-02
  +4.49494949495e-02
  +4.54545454545e-02
  +4.59595959596e-02
  +4.64646464646e-02
  +4.69696969697e-02
  +4.74747474747e-02
  +4.79797979798e-02
  +4.84848484848e-02
  +4.89898989899e-02
  +4.94949494949e-02
  +5.00000000000e-02
</indep>
<dep V1.It time>
  +1.24999992898e-04
  +7.42037309070e-05
  +3.32216372273e-05
  +1.85042831563e-06
  -2.00032662478e-05
  -3.25755940380e-05
  -3.64303033455e-05
  -3.25447882169e-05
  -2.23308250131e-05
  -7.57680577490e-06
  +9.66802907065e-06
  +2.72496174951e-05
  +4.30868976096e-05
  +5.53547499557e-05
  +6.26449485613e-05
  +6.40931318465e-05
  +5.94507891379e-05
  +4.91044435200e-05
  +3.40294507789e-05
  +1.56870865608e-05
  -4.12311955844e-06
  -2.34479257527e-05
  -4.03758583493e-05
  -5.32303521100e-05
  -6.07381622111e-05
  -6.21573635423e-05
  -5.73520830640e-05
  -4.68065524318e-05
  -3.15771020996e-05
  -1.31872881817e-05
  +6.52528112766e-06
  +2.55904002364e-05
  +4.21032257284e-05
  +5.44140580589e-05
  +6.12929658285e-05
  +6.20526080515e-05
  +5.66168010140e-05
  +4.55281064231e-05
  +2.98936320249e-05
  +1.12744630021e-05
  -8.47024221895e-06
  -2.73689058347e-05
  -4.35343470157e-05
  -5.53524569695e-05
  -6.16430932940e-05
  -6.17781137249e-05
  -5.57440539833e-05
  -4.41434757156e-05
  -2.81347971898e-05
  -9.31661710285e-06
  +1.04319172599e-05
  +2.91387569844e-05
  +4.49358755570e-05
  +5.62458055413e-05
  +6.19391607433e-05
  +6.14474140374e-05
  +5.48196690976e-05
  +4.27177569274e-05
  +2.63501468293e-05
  +7.35127131318e-06
  -1.23816847175e-05
  -3.08782326371e-05
  -4.62913487070e-05
  -5.70819137537e-05
  -6.21724061796e-05
  -6.10545008702e-05
  -5.38398294105e-05
  -4.12488328091e-05
  -2.45388198731e-05
  -5.37855933047e-06
  +1.43189908621e-05
  +3.25866107494e-05
  +4.76002125833e-05
  +5.78605431573e-05
  +6.23430433979e-05
  +6.06000975137e-05
  +5.28057511239e-05
  +3.97382405439e-05
  +2.27032035564e-05
  +3.40039701800e-06
  -1.62419008881e-05
  -3.42622467535e-05
  -4.88611867228e-05
  -5.85810837018e-05
  -6.24507411736e-05
  -6.00845360478e-05
  -5.17183905195e-05
  -3.81877373988e-05
  -2.08437236279e-05
  -1.41828828032e-06
  +1.81484157458e-05
  +3.59032677009e-05
  +5.00728764946e-05
  +5.92422966311e-05
  +6.24958957620e-05
  +5.95087759918e-05
  +5.05791569929e-05
  +3.65988310099e-05
  +1.89638094801e-05
  -5.64863246066e-07
</dep>
<dep V2.It time>
  -1.24999998580e-04
  -1.14840746181e-04
  -1.06644327445e-04
  -1.00370085663e-04
  -9.59993467504e-05
  -9.34848811926e-05
  -9.27139393308e-05
  -9.34910423566e-05
  -9.55338349974e-05
  -9.84846388450e-05
  -1.01933605814e-04
  -1.05449923499e-04
  -1.08617379522e-04
  -1.11070949991e-04
  -1.12528989712e-04
  -1.12818626369e-04
  -1.11890157828e-04
  -1.09820888704e-04
  -1.06805890156e-04
  -1.03137417312e-04
  -9.91753760883e-05
  -9.53104148495e-05
  -9.19248283301e-05
  -8.93539295780e-05
  -8.78523675578e-05
  -8.75685272915e-05
  -8.85295833872e-05
  -9.06386895136e-05
  -9.36845795801e-05
  -9.73625423637e-05
  -1.01305056226e-04
  -1.05118080047e-04
  -1.08420645146e-04
  -1.10882811612e-04
  -1.12258593166e-04
  -1.12410521610e-04
  -1.11323360203e-04
  -1.09105621285e-04
  -1.05978726405e-04
  -1.02254892600e-04
  -9.83059515562e-05
  -9.45262188331e-05
  -9.12931305969e-05
  -8.89295086061e-05
  -8.76713813412e-05
  -8.76443772550e-05
  -8.88511892033e-05
  -9.11713048569e-05
  -9.43730405620e-05
  -9.81366765794e-05
  -1.02086383452e-04
  -1.05827751397e-04
  -1.08987175111e-04
  -1.11249161108e-04
  -1.12387832149e-04
  -1.12289482807e-04
  -1.10963933820e-04
  -1.08543551385e-04
  -1.05270029366e-04
  -1.01470254263e-04
  -9.75236630565e-05
  -9.38243534726e-05
  -9.07417302586e-05
  -8.85836172493e-05
  -8.75655187641e-05
  -8.77890998260e-05
  -8.92320341179e-05
  -9.17502334382e-05
  -9.50922360254e-05
  -9.89242881339e-05
  -1.02863798173e-04
  -1.06517322150e-04
  -1.09520042517e-04
  -1.11572108631e-04
  -1.12468608680e-04
  -1.12120019503e-04
  -1.10561150225e-04
  -1.07947648109e-04
  -1.04540640711e-04
  -1.00680079404e-04
  -9.67516198224e-05
  -9.31475506493e-05
  -9.02277626555e-05
  -8.82837832596e-05
  -8.75098517653e-05
  -8.79830927905e-05
  -8.96563218961e-05
  -9.23624525203e-05
  -9.58312552744e-05
  -9.97163423439e-05
  -1.03629683149e-04
  -1.07180653540e-04
  -1.10014575299e-04
  -1.11848459326e-04
  -1.12499179152e-04
  -1.11901755198e-04
  -1.10115831399e-04
  -1.07319766202e-04
  -1.03792761896e-04
  -9.98870273508e-05
</dep>
<dep Vout.Vt time>
  +5.68181785899e-08
  +4.06370152744e-01
  +7.34226902182e-01
  +9.85196573475e-01
  +1.16002612998e+00
  +1.26060475230e+00
  +1.29144242677e+00
  +1.26035830574e+00
  +1.17864660011e+00
  +1.06061444620e+00
  +9.22655767435e-01
  +7.82003060040e-01
  +6.55304819123e-01
  +5.57162000355e-01
  +4.98840411510e-01
  +4.87254945228e-01
  +5.24393686896e-01
  +6.07164451840e-01
  +7.27764393769e-01
  +8.74503307509e-01
  +1.03298495647e+00
  +1.18758340602e+00
  +1.32300686679e+00
  +1.42584281688e+00
  +1.48590529769e+00
  +1.49725890834e+00
  +1.45881666451e+00
  +1.37445241945e+00
  +1.25261681680e+00
  +1.10549830545e+00
  +9.47797750979e-01
  +7.95276798109e-01
  +6.63174194173e-01
  +5.64687535529e-01
  +5.09656273372e-01
  +5.03579135588e-01
  +5.47065591888e-01
  +6.35775148615e-01
  +7.60850943801e-01
  +9.09804295983e-01
  +1.06776193775e+00
  +1.21895124668e+00
  +1.34827477613e+00
  +1.44281965576e+00
  +1.49314474635e+00
  +1.49422490980e+00
  +1.44595243187e+00
  +1.35314780573e+00
  +1.22507837752e+00
  +1.07453293682e+00
  +9.16544661921e-01
  +7.66889944125e-01
  +6.40512995544e-01
  +5.50033555670e-01
  +5.04486714053e-01
  +5.08420687700e-01
  +5.61442647219e-01
  +6.58257944581e-01
  +7.89198825366e-01
  +9.41189829495e-01
  +1.09905347774e+00
  +1.24702586110e+00
  +1.37033078966e+00
  +1.45665531003e+00
  +1.49737924944e+00
  +1.48843600696e+00
  +1.43071863528e+00
  +1.32999066247e+00
  +1.19631055899e+00
  +1.04302847464e+00
  +8.85448073099e-01
  +7.39307114005e-01
  +6.19198299334e-01
  +5.37115654742e-01
  +5.01255652816e-01
  +5.15199219890e-01
  +5.77553991010e-01
  +6.82094075653e-01
  +8.18374371549e-01
  +9.72796823855e-01
  +1.12993520710e+00
  +1.27409797403e+00
  +1.39088949378e+00
  +1.46864866962e+00
  +1.49960592939e+00
  +1.48067628838e+00
  +1.41374712416e+00
  +1.30550189919e+00
  +1.16674978902e+00
  +1.01134630624e+00
  +8.54812674034e-01
  +7.12773858393e-01
  +5.99416988043e-01
  +5.26061626951e-01
  +5.00032833904e-01
  +5.23929792063e-01
  +5.95366744057e-01
  +7.07209351921e-01
  +8.48289524159e-01
  +1.00451890597e+00
</dep>
<dep _net0.Vt time>
  +5.00000000000e+00
  +5.00000000000e+00
  +5.00000000000e+00
  +5.00000000000e+00
  +5.00000000000e+00
  +5.00000000000e+00
  +5.00000000000e+00
  +5.00000000000e+00
  +5.00000000000e+00
  +5.00000000000e+00
  +5.00000000000e+00
  +5.00000000000e+00
  +5.00000000000e+00
  +5.00000000000e+00
  +5.00000000000e+00
  +5.00000000000e+00
  +5.00000000000e+00
  +5.00000000000e+00
  +5.00000000000e+00
  +5.00000000000e+00
  +5.00000000000e+00
  +5.00000000000e+00
  +5.00000000000e+00
  +5.00000000000e+00
  +5.00000000000e+00
  +5.00000000000e+00
  +5.00000000000e+00
  +5.00000000000e+00
  +5.00000000000e+00
  +5.00000000000e+00
  +5.00000000000e+00
  +5.00000000000e+00
  +5.00000000000e+00
  +5.00000000000e+00
  +5.00000000000e+00
  +5.00000000000e+00
  +5.00000000000e+00
  +5.00000000000e+00
  +5.00000000000e+00
  +5.00000000000e+00
  +5.00000000000e+00
  +5.00000000000e+00
  +5.00000000000e+00
  +5.00000000000e+00
  +5.00000000000e+00
  +5.00000000000e+00
  +5.00000000000e+00
  +5.00000000000e+00
  +5.00000000000e+00
  +5.00000000000e+00
  +5.00000000000e+00
  +5.00000000000e+00
  +5.00000000000e+00
  +5.00000000000e+00
  +5.00000000000e+00
  +5.00000000000e+00
  +5.00000000000e+00
  +5.00000000000e+00
  +5.00000000000e+00
  +5.00000000000e+00
  +5.00000000000e+00
  +5.00000000000e+00
  +5.00000000000e+00
  +5.00000000000e+00
  +5.00000000000e+00
  +5.00000000000e+00
  +5.00000000000e+00
  +5.00000000000e+00
  +5.00000000000e+00
  +5.00000000000e+00
  +5.00000000000e+00
  +5.00000000000e+00
  +5.00000000000e+00
  +5.00000000000e+00
  +5.00000000000e+00
  +5.00000000000e+00
  +5.00000000000e+00
  +5.00000000000e+00
  +5.00000000000e+00
  +5.00000000000e+00
  +5.00000000000e+00
  +5.00000000000e+00
  +5.00000000000e+00
  +5.00000000000e+00
  +5.00000000000e+00
  +5.00000000000e+00
  +5.00000000000e+00
  +5.00000000000e+00
  +5.00000000000e+00
  +5.00000000000e+00
  +5.00000000000e+00
  +5.00000000000e+00
  +5.00000000000e+00
  +5.00000000000e+00
  +5.00000000000e+00
  +5.00000000000e+00
  +5.00000000000e+00
  +5.00000000000e+00
  +5.00000000000e+00
  +5.00000000000e+00
</dep>
<dep Vin.Vt time>
  +0.00000000000e+00
  +1.56016722849e-01
  +2.96453964527e-01
  +4.07287976025e-01
  +4.77451120722e-01
  +4.99937063837e-01
  +4.72500409357e-01
  +3.97880920265e-01
  +2.83529931931e-01
  +1.40866278421e-01
  -1.58639667490e-02
  -1.71010071663e-01
  -3.09079493110e-01
  -4.16284927317e-01
  -4.81921079280e-01
  -4.99433669592e-01
  -4.67073930133e-01
  -3.88073232146e-01
  -2.70320408728e-01
  -1.25573993591e-01
  +3.17119598282e-02
  +1.85831227830e-01
  +3.21393804843e-01
  +4.24862714975e-01
  +4.85905784162e-01
  +4.98427387976e-01
  +4.61177147052e-01
  +3.77874787177e-01
  +2.56838695787e-01
  +1.10155266393e-01
  -4.75280216521e-02
  -2.00465267703e-01
  -3.33384500258e-01
  -4.33012701892e-01
  -4.89401223107e-01
  -4.96919232231e-01
  -4.54815997677e-01
  -3.67295854329e-01
  -2.43098368050e-01
  -9.46256221803e-02
  +6.32962267868e-02
  +2.14897456045e-01
  +3.45039505741e-01
  +4.40726681724e-01
  +4.92403876506e-01
  +4.94910720940e-01
  +4.47996887146e-01
  +3.56347085689e-01
  +2.29113260864e-01
  +7.90006979867e-02
  -7.90006979866e-02
  -2.29113260864e-01
  -3.56347085689e-01
  -4.47996887146e-01
  -4.94910720940e-01
  -4.92403876506e-01
  -4.40726681724e-01
  -3.45039505741e-01
  -2.14897456045e-01
  -6.32962267868e-02
  +9.46256221802e-02
  +2.43098368050e-01
  +3.67295854329e-01
  +4.54815997677e-01
  +4.96919232231e-01
  +4.89401223107e-01
  +4.33012701892e-01
  +3.33384500258e-01
  +2.00465267703e-01
  +4.75280216520e-02
  -1.10155266393e-01
  -2.56838695787e-01
  -3.77874787177e-01
  -4.61177147052e-01
  -4.98427387976e-01
  -4.85905784162e-01
  -4.24862714975e-01
  -3.21393804843e-01
  -1.85831227830e-01
  -3.17119598283e-02
  +1.25573993590e-01
  +2.70320408728e-01
  +3.88073232146e-01
  +4.67073930133e-01
  +4.99433669592e-01
  +4.81921079280e-01
  +4.16284927317e-01
  +3.09079493110e-01
  +1.71010071663e-01
  +1.58639667490e-02
  -1.40866278421e-01
  -2.83529931931e-01
  -3.97880920265e-01
  -4.72500409357e-01
  -4.99937063837e-01
  -4.77451120722e-01
  -4.07287976025e-01
  -2.96453964527e-01
  -1.56016722849e-01
  +6.66653524795e-14
</dep>
