<Qucs Dataset 0.0.18>
<indep time 11>
  +0.00000000000e+00
  +1.00000000000e-01
  +2.00000000000e-01
  +3.00000000000e-01
  +4.00000000000e-01
  +5.00000000000e-01
  +6.00000000000e-01
  +7.00000000000e-01
  +8.00000000000e-01
  +9.00000000000e-01
  +1.00000000000e+00
</indep>
<dep Vout1.Vt time>
  +0.00000000000e+00
  +4.98953699479e-01
  +4.98950800912e-01
  +4.98953506948e-01
  +4.98958617902e-01
  +4.98958082562e-01
  +4.98953156238e-01
  +4.98952515695e-01
  +4.98951339849e-01
  +4.98952212638e-01
  +4.98954474002e-01
</dep>
<dep Vout2.Vt time>
  +0.00000000000e+00
  +4.98953699479e-01
  +4.98950800912e-01
  +4.98953506948e-01
  +4.98958617902e-01
  +4.98958082562e-01
  +4.98953156238e-01
  +4.98952515695e-01
  +4.98951339849e-01
  +4.98952212638e-01
  +4.98954474002e-01
</dep>
<dep Vin.Vt time>
  +0.00000000000e+00
  +2.66661409918e-13
  +5.33322819836e-13
  +2.61897363330e-12
  +1.06664563967e-12
  -4.85682353957e-13
  +5.23794726660e-12
  +3.68561927297e-12
  +2.13329127934e-12
  +5.80963285714e-13
  -9.71364707914e-13
</dep>
<dep V1.It time>
  +0.00000000000e+00
  -4.99195190154e-04
  -4.99192280279e-04
  -4.99194941076e-04
  -4.99200071054e-04
  -4.99199830614e-04
  -4.99194499730e-04
  -4.99194178814e-04
  -4.99192664744e-04
  -4.99193742706e-04
  -4.99195967895e-04
</dep>
<dep _net0.Vt time>
  +0.00000000000e+00
  +2.66661409918e-13
  +5.33322819836e-13
  +2.61897363330e-12
  +1.06664563967e-12
  -4.85682353957e-13
  +5.23794726660e-12
  +3.68561927297e-12
  +2.13329127934e-12
  +5.80963285714e-13
  -9.71364707914e-13
</dep>
<dep _net1.Vt time>
  +0.00000000000e+00
  +4.98953699479e-01
  +4.98950800912e-01
  +4.98953506948e-01
  +4.98958617902e-01
  +4.98958082562e-01
  +4.98953156238e-01
  +4.98952515695e-01
  +4.98951339849e-01
  +4.98952212638e-01
  +4.98954474002e-01
</dep>
