<Qucs Dataset 0.0.18>
<indep time 100>
  +0.00000000000e+00
  +5.05050505051e-04
  +1.01010101010e-03
  +1.51515151515e-03
  +2.02020202020e-03
  +2.52525252525e-03
  +3.03030303030e-03
  +3.53535353535e-03
  +4.04040404040e-03
  +4.54545454545e-03
  +5.05050505051e-03
  +5.55555555556e-03
  +6.06060606061e-03
  +6.56565656566e-03
  +7.07070707071e-03
  +7.57575757576e-03
  +8.08080808081e-03
  +8.58585858586e-03
  +9.09090909091e-03
  +9.59595959596e-03
  +1.01010101010e-02
  +1.06060606061e-02
  +1.11111111111e-02
  +1.16161616162e-02
  +1.21212121212e-02
  +1.26262626263e-02
  +1.31313131313e-02
  +1.36363636364e-02
  +1.41414141414e-02
  +1.46464646465e-02
  +1.51515151515e-02
  +1.56565656566e-02
  +1.61616161616e-02
  +1.66666666667e-02
  +1.71717171717e-02
  +1.76767676768e-02
  +1.81818181818e-02
  +1.86868686869e-02
  +1.91919191919e-02
  +1.96969696970e-02
  +2.02020202020e-02
  +2.07070707071e-02
  +2.12121212121e-02
  +2.17171717172e-02
  +2.22222222222e-02
  +2.27272727273e-02
  +2.32323232323e-02
  +2.37373737374e-02
  +2.42424242424e-02
  +2.47474747475e-02
  +2.52525252525e-02
  +2.57575757576e-02
  +2.62626262626e-02
  +2.67676767677e-02
  +2.72727272727e-02
  +2.77777777778e-02
  +2.82828282828e-02
  +2.87878787879e-02
  +2.92929292929e-02
  +2.97979797980e-02
  +3.03030303030e-02
  +3.08080808081e-02
  +3.13131313131e-02
  +3.18181818182e-02
  +3.23232323232e-02
  +3.28282828283e-02
  +3.33333333333e-02
  +3.38383838384e-02
  +3.43434343434e-02
  +3.48484848485e-02
  +3.53535353535e-02
  +3.58585858586e-02
  +3.63636363636e-02
  +3.68686868687e-02
  +3.73737373737e-02
  +3.78787878788e-02
  +3.83838383838e-02
  +3.88888888889e-02
  +3.93939393939e-02
  +3.98989898990e-02
  +4.04040404040e-02
  +4.09090909091e-02
  +4.14141414141e-02
  +4.19191919192e-02
  +4.24242424242e-02
  +4.29292929293e-02
  +4.34343434343e-02
  +4.39393939394e-02
  +4.44444444444e-02
  +4.49494949495e-02
  +4.54545454545e-02
  +4.59595959596e-02
  +4.64646464646e-02
  +4.69696969697e-02
  +4.74747474747e-02
  +4.79797979798e-02
  +4.84848484848e-02
  +4.89898989899e-02
  +4.94949494949e-02
  +5.00000000000e-02
</indep>
<dep V2.It time>
  -1.24999998582e-04
  -1.14872831218e-04
  -1.06754202001e-04
  -1.00578520538e-04
  -9.63118083613e-05
  -9.38974169585e-05
  -9.32181853445e-05
  -9.40762644111e-05
  -9.61887996816e-05
  -9.91985384632e-05
  -1.02696401036e-04
  -1.06252512198e-04
  -1.09452104642e-04
  -1.11931194534e-04
  -1.13409422341e-04
  -1.13714743264e-04
  -1.12798600634e-04
  -1.10739006531e-04
  -1.07731693894e-04
  -1.04069500733e-04
  -1.00112648767e-04
  -9.62522403782e-05
  -9.28706760030e-05
  -9.03034714242e-05
  -8.88052748804e-05
  -8.85244451019e-05
  -8.94881406634e-05
  -9.15994493607e-05
  -9.46469743914e-05
  -9.83261056603e-05
  -1.02269137501e-04
  -1.06082154664e-04
  -1.09384164187e-04
  -1.11845357914e-04
  -1.13219929204e-04
  -1.13370507710e-04
  -1.12282030360e-04
  -1.10063197523e-04
  -1.06935409665e-04
  -1.03211154829e-04
  -9.92622287865e-05
  -9.54829664406e-05
  -9.22507209683e-05
  -8.98882416408e-05
  -8.86314925342e-05
  -8.86059290334e-05
  -8.98141393735e-05
  -9.21354350106e-05
  -9.53380192875e-05
  -9.91021372490e-05
  -1.03051824492e-04
  -1.06792731602e-04
  -1.09951294588e-04
  -1.12212086428e-04
  -1.13349363528e-04
  -1.13249564503e-04
  -1.11922670161e-04
  -1.09501120339e-04
  -1.06226748161e-04
  -1.02426572041e-04
  -9.84800591217e-05
  -9.47812194294e-05
  -9.16994697208e-05
  -8.95425608642e-05
  -8.85258714359e-05
  -8.87509140381e-05
  -9.01952067627e-05
  -9.27145481697e-05
  -9.60573315128e-05
  -9.98898059294e-05
  -1.03829218308e-04
  -1.07482200527e-04
  -1.10483981964e-04
  -1.12534795154e-04
  -1.13429884955e-04
  -1.13079833306e-04
  -1.11519620979e-04
  -1.08905069095e-04
  -1.05497200665e-04
  -1.01636328946e-04
  -9.77079784126e-05
  -9.41045364964e-05
  -9.11857592103e-05
  -8.92431076295e-05
  -8.84705261911e-05
  -8.89452098024e-05
  -9.06197510897e-05
  -9.33269579070e-05
  -9.67964751857e-05
  -1.00681818933e-04
  -1.04595029985e-04
  -1.08145384624e-04
  -1.10978278992e-04
  -1.12810862212e-04
  -1.13460148726e-04
  -1.12861278084e-04
  -1.11074043446e-04
  -1.08276937800e-04
  -1.04749300103e-04
  -1.00843366977e-04
</dep>
<dep V1.It time>
  +1.24761206890e-04
  +7.23663556062e-05
  +3.01458507441e-05
  -1.97333108402e-06
  -2.41673271839e-05
  -3.67300077065e-05
  -4.02698340775e-05
  -3.58148450358e-05
  -2.48351882076e-05
  -9.18802313076e-06
  +8.99977640074e-06
  +2.74929642684e-05
  +4.41346167617e-05
  +5.70316340803e-05
  +6.47255723395e-05
  +6.63210850350e-05
  +6.15648965127e-05
  +5.08618873263e-05
  +3.52291945860e-05
  +1.61890328297e-05
  -4.38577420367e-06
  -2.44615595805e-05
  -4.20496905557e-05
  -5.54050753404e-05
  -6.32029568069e-05
  -6.46711439153e-05
  -5.96676270408e-05
  -4.86955784119e-05
  -3.28535880370e-05
  -1.37251185944e-05
  +6.77806990540e-06
  +2.66076675098e-05
  +4.37823221105e-05
  +5.65866142625e-05
  +6.37417393098e-05
  +6.45326384829e-05
  +5.88801954074e-05
  +4.73488897115e-05
  +3.10893383562e-05
  +1.17259926683e-05
  -8.80809541707e-06
  -2.84624095788e-05
  -4.52744997840e-05
  -5.75656358552e-05
  -6.41081754650e-05
  -6.42490076727e-05
  -5.79738831431e-05
  -4.59096300604e-05
  -2.92609406943e-05
  -9.69006732955e-06
  +1.08482263536e-05
  +3.03033349102e-05
  +4.67324849222e-05
  +5.84949943699e-05
  +6.44163584821e-05
  +6.39053070415e-05
  +5.70129543236e-05
  +4.44272283180e-05
  +2.74050400588e-05
  +7.64642729184e-06
  -1.28756059386e-05
  -3.21122087192e-05
  -4.81421305235e-05
  -5.93645921281e-05
  -6.46589737389e-05
  -6.34966502639e-05
  -5.59937389819e-05
  -4.28993474193e-05
  -2.55212134499e-05
  -5.59440677206e-06
  +1.48909537838e-05
  +3.38893298118e-05
  +4.95036140745e-05
  +6.01745150750e-05
  +6.48366453477e-05
  +6.30242615565e-05
  +5.49184781126e-05
  +4.13288319684e-05
  +2.36120448282e-05
  +3.53732957153e-06
  -1.68907663541e-05
  -3.56317573582e-05
  -5.08146124221e-05
  -6.09232043811e-05
  -6.49483498552e-05
  -6.24878585121e-05
  -5.37874651300e-05
  -3.97158507957e-05
  -2.16782713084e-05
  -1.47605764113e-06
  +1.88735563747e-05
  +3.73387337102e-05
  +5.20751802310e-05
  +6.16115417035e-05
  +6.49956010715e-05
  +6.18893081936e-05
  +5.26028038679e-05
  +3.80635426395e-05
  +1.97235207612e-05
  -5.86003763548e-07
</dep>
<dep V4.It time>
  -9.95218706503e-06
  -1.00054473330e-05
  -1.00047315193e-05
  -1.00036219214e-05
  -1.00022270392e-05
  -1.00006846535e-05
  -9.99914707788e-06
  -9.99776671027e-06
  -9.99668007063e-06
  -9.99599618046e-06
  -9.99578215812e-06
  -9.99605892693e-06
  -9.99680033686e-06
  -9.99793110347e-06
  -9.99933819255e-06
  -1.00008811944e-05
  -1.00024063046e-05
  -1.00037594326e-05
  -1.00048079467e-05
  -1.00054450218e-05
  -1.00056061275e-05
  -1.00052786500e-05
  -1.00044924512e-05
  -1.00033282084e-05
  -1.00019012407e-05
  -1.00003539869e-05
  -9.99884060299e-06
  -9.99751241234e-06
  -9.99650175982e-06
  -9.99590888097e-06
  -9.99579481923e-06
  -9.99616956270e-06
  -9.99699620388e-06
  -9.99819283819e-06
  -9.99963942894e-06
  -1.00011916713e-05
  -1.00026943096e-05
  -1.00039971960e-05
  -1.00049694413e-05
  -1.00055153799e-05
  -1.00055789592e-05
  -1.00051555310e-05
  -1.00042873169e-05
  -1.00030597349e-05
  -1.00015964960e-05
  -1.00000434185e-05
  -9.99855569937e-06
  -9.99728101329e-06
  -9.99634711869e-06
  -9.99584721830e-06
  -9.99583091585e-06
  -9.99630072065e-06
  -9.99720950893e-06
  -9.99846659943e-06
  -9.99994643931e-06
  -1.00015011447e-05
  -1.00029759367e-05
  -1.00042213556e-05
  -1.00051151532e-05
  -1.00055673474e-05
  -1.00055339257e-05
  -1.00050149148e-05
  -1.00040662406e-05
  -1.00027813369e-05
  -1.00012881911e-05
  -9.99973592007e-06
  -9.99827927499e-06
  -9.99706358215e-06
  -9.99621014109e-06
  -9.99580452945e-06
  -9.99588579183e-06
  -9.99644940063e-06
  -9.99743660734e-06
  -9.99874891138e-06
  -1.00002563392e-05
  -1.00018073574e-05
  -1.00032472495e-05
  -1.00044317460e-05
  -1.00052431886e-05
  -1.00055999155e-05
  -1.00054667908e-05
  -1.00048580309e-05
  -1.00038327838e-05
  -1.00024952513e-05
  -1.00009774976e-05
  -9.99943201493e-06
  -9.99801260004e-06
  -9.99686026313e-06
  -9.99609110673e-06
  -9.99578111017e-06
  -9.99596076237e-06
  -9.99661583994e-06
  -9.99767683732e-06
  -9.99903963480e-06
  -1.00005679607e-05
  -1.00021090633e-05
  -1.00035086133e-05
  -1.00046270309e-05
  -1.00053529645e-05
  -1.00056133155e-05
</dep>
<dep V3.It time>
  -6.27749708026e-11
  -9.53824668719e-11
  -7.93837348653e-11
  -5.67376082693e-11
  -2.95870498862e-11
  -1.60028019708e-13
  +2.89474469571e-11
  +5.51876525591e-11
  +7.62516765855e-11
  +9.00484247808e-11
  +9.51319808858e-11
  +9.07097127460e-11
  +7.69984099701e-11
  +5.51473858827e-11
  +2.73981577484e-11
  -3.35204557214e-12
  -3.37398424568e-11
  -6.04063802734e-11
  -8.06178475194e-11
  -9.23464968372e-11
  -9.46205587704e-11
  -8.75594302198e-11
  -7.20358457081e-11
  -4.97689032670e-11
  -2.29148917452e-11
  +6.03890420383e-12
  +3.44313216611e-11
  +5.96806756028e-11
  +7.93724821444e-11
  +9.15526224706e-11
  +9.48044315396e-11
  +8.85455159212e-11
  +7.31410735256e-11
  +4.99664934675e-11
  +2.13833883364e-11
  -9.54575630435e-12
  -3.94272522921e-11
  -6.50165480161e-11
  -8.36378957531e-11
  -9.35340575520e-11
  -9.39131562006e-11
  -8.50637734629e-11
  -6.80669270304e-11
  -4.46915515928e-11
  -1.72013270849e-11
  +1.18451460861e-11
  +3.98116892608e-11
  +6.41359609897e-11
  +8.24620817306e-11
  +9.29345992346e-11
  +9.43240306883e-11
  +8.61721322014e-11
  +6.90666774641e-11
  +4.46004033906e-11
  +1.52651263125e-11
  -1.57011372686e-11
  -4.49771723760e-11
  -6.93790201267e-11
  -8.63701035722e-11
  -9.43508680486e-11
  -9.28642362290e-11
  -8.22767833396e-11
  -6.38392111666e-11
  -3.94181877874e-11
  -1.14174600556e-11
  +1.75912559100e-11
  +4.50659209804e-11
  +6.83586659005e-11
  +8.52228805842e-11
  +9.39493413388e-11
  +9.34407243418e-11
  +8.34485389258e-11
  +6.46632193518e-11
  +3.90491362060e-11
  +9.12439470974e-12
  -2.17929934937e-11
  -5.03225387685e-11
  -7.34262208798e-11
  -8.86939568718e-11
  -9.48159767810e-11
  -9.14474206554e-11
  -7.91734303514e-11
  -5.93462425986e-11
  -3.40474960971e-11
  -5.61972113350e-12
  +2.33143360996e-11
  +5.01092278711e-11
  +7.23048056320e-11
  +8.76893583504e-11
  +9.46381865374e-11
  +9.22110225184e-11
  +8.03299426962e-11
  +6.00290996309e-11
  +3.32817157396e-11
  +2.89155496506e-12
  -2.78183144989e-11
  -5.54721744335e-11
  -7.71573903931e-11
  -9.06928772705e-11
  -9.49125770340e-11
</dep>
<dep _net2.Vt time>
  -1.00000000000e+01
  -1.00000000000e+01
  -1.00000000000e+01
  -1.00000000000e+01
  -1.00000000000e+01
  -1.00000000000e+01
  -1.00000000000e+01
  -1.00000000000e+01
  -1.00000000000e+01
  -1.00000000000e+01
  -1.00000000000e+01
  -1.00000000000e+01
  -1.00000000000e+01
  -1.00000000000e+01
  -1.00000000000e+01
  -1.00000000000e+01
  -1.00000000000e+01
  -1.00000000000e+01
  -1.00000000000e+01
  -1.00000000000e+01
  -1.00000000000e+01
  -1.00000000000e+01
  -1.00000000000e+01
  -1.00000000000e+01
  -1.00000000000e+01
  -1.00000000000e+01
  -1.00000000000e+01
  -1.00000000000e+01
  -1.00000000000e+01
  -1.00000000000e+01
  -1.00000000000e+01
  -1.00000000000e+01
  -1.00000000000e+01
  -1.00000000000e+01
  -1.00000000000e+01
  -1.00000000000e+01
  -1.00000000000e+01
  -1.00000000000e+01
  -1.00000000000e+01
  -1.00000000000e+01
  -1.00000000000e+01
  -1.00000000000e+01
  -1.00000000000e+01
  -1.00000000000e+01
  -1.00000000000e+01
  -1.00000000000e+01
  -1.00000000000e+01
  -1.00000000000e+01
  -1.00000000000e+01
  -1.00000000000e+01
  -1.00000000000e+01
  -1.00000000000e+01
  -1.00000000000e+01
  -1.00000000000e+01
  -1.00000000000e+01
  -1.00000000000e+01
  -1.00000000000e+01
  -1.00000000000e+01
  -1.00000000000e+01
  -1.00000000000e+01
  -1.00000000000e+01
  -1.00000000000e+01
  -1.00000000000e+01
  -1.00000000000e+01
  -1.00000000000e+01
  -1.00000000000e+01
  -1.00000000000e+01
  -1.00000000000e+01
  -1.00000000000e+01
  -1.00000000000e+01
  -1.00000000000e+01
  -1.00000000000e+01
  -1.00000000000e+01
  -1.00000000000e+01
  -1.00000000000e+01
  -1.00000000000e+01
  -1.00000000000e+01
  -1.00000000000e+01
  -1.00000000000e+01
  -1.00000000000e+01
  -1.00000000000e+01
  -1.00000000000e+01
  -1.00000000000e+01
  -1.00000000000e+01
  -1.00000000000e+01
  -1.00000000000e+01
  -1.00000000000e+01
  -1.00000000000e+01
  -1.00000000000e+01
  -1.00000000000e+01
  -1.00000000000e+01
  -1.00000000000e+01
  -1.00000000000e+01
  -1.00000000000e+01
  -1.00000000000e+01
  -1.00000000000e+01
  -1.00000000000e+01
  -1.00000000000e+01
  -1.00000000000e+01
  -1.00000000000e+01
</dep>
<dep _net1.Vt time>
  -4.77571475604e-02
  +5.52665414153e-03
  +4.80006792134e-03
  +3.67242337456e-03
  +2.25386752006e-03
  +6.84821794108e-04
  -8.79573830754e-04
  -2.28399476263e-03
  -3.38931030211e-03
  -4.08462775372e-03
  -4.30179697802e-03
  -4.01983258741e-03
  -3.26547511370e-03
  -2.11549977543e-03
  -6.84766488782e-04
  +8.84012146192e-04
  +2.43464404086e-03
  +3.81067336566e-03
  +4.87726710497e-03
  +5.52580348819e-03
  +5.69044143122e-03
  +5.35809056276e-03
  +4.55884574266e-03
  +3.37465077763e-03
  +1.92276296255e-03
  +3.48310996436e-04
  -1.19169844188e-03
  -2.54301736876e-03
  -3.57097442358e-03
  -4.17360583682e-03
  -4.28901967059e-03
  -3.90734881809e-03
  -3.06633226747e-03
  -1.84937778747e-03
  -3.78509907567e-04
  +1.19967815541e-03
  +2.72750688915e-03
  +4.05251817738e-03
  +5.04161924231e-03
  +5.59751190499e-03
  +5.66297862702e-03
  +5.23298605301e-03
  +4.35023631730e-03
  +3.10152254682e-03
  +1.61267150564e-03
  +3.22707963810e-05
  -1.48157703384e-03
  -2.77842325918e-03
  -3.72819792745e-03
  -4.23620489502e-03
  -4.25220136194e-03
  -3.77388414744e-03
  -2.84938709710e-03
  -1.57101157647e-03
  -6.63731521325e-05
  +1.51432472370e-03
  +3.01389697840e-03
  +4.28051152838e-03
  +5.18992469307e-03
  +5.65053551645e-03
  +5.61732566951e-03
  +5.09004963766e-03
  +4.12538561475e-03
  +2.81827555892e-03
  +1.29895872606e-03
  -2.80652451089e-04
  -1.76282955346e-03
  -2.99958043014e-03
  -3.86746335098e-03
  -4.27952097329e-03
  -4.19628364533e-03
  -3.62258604270e-03
  -2.61842787841e-03
  -1.28394466790e-03
  +2.48716080751e-04
  +1.82567351510e-03
  +3.28980479552e-03
  +4.49453519678e-03
  +5.32027438711e-03
  +5.68381063107e-03
  +5.54918007194e-03
  +4.93057216468e-03
  +3.88793683940e-03
  +2.52718910109e-03
  +9.82790246257e-04
  -5.89896998668e-04
  -2.03415931151e-03
  -3.20638239509e-03
  -3.98845482160e-03
  -4.30321862338e-03
  -4.11990932773e-03
  -3.45326663995e-03
  -2.37410510474e-03
  -9.88359486558e-04
  +5.65538786878e-04
  +2.13243101914e-03
  +3.55559023751e-03
  +4.69321563251e-03
  +5.43204493359e-03
  +5.69759106984e-03
</dep>
<dep Vout2.Vt time>
  +1.02169759567e+00
  +1.58952793025e+00
  +1.26308637162e+00
  +1.01344594578e+00
  +8.39502415876e-01
  +7.39313801942e-01
  +7.08551027118e-01
  +7.39656799418e-01
  +8.21636207112e-01
  +9.40451083437e-01
  +1.07989370356e+00
  +1.22281385074e+00
  +1.35255737537e+00
  +1.45438497583e+00
  +1.51681657934e+00
  +1.53264098105e+00
  +1.49955655318e+00
  +1.42032381595e+00
  +1.30246401852e+00
  +1.15744263021e+00
  +9.99519063468e-01
  +8.44310166034e-01
  +7.07186410152e-01
  +6.01756218719e-01
  +5.38478107616e-01
  +5.23621138512e-01
  +5.58633232385e-01
  +6.39992094237e-01
  +7.59549902879e-01
  +9.05354517361e-01
  +1.06283824744e+00
  +1.21626369010e+00
  +1.35030197738e+00
  +1.45156678987e+00
  +1.50994261284e+00
  +1.51959718310e+00
  +1.47956505631e+00
  +1.39384355118e+00
  +1.27098558009e+00
  +1.12326749166e+00
  +9.65433641313e-01
  +8.13247181560e-01
  +6.81903729417e-01
  +5.84515372504e-01
  +5.30812371991e-01
  +5.26154162017e-01
  +5.71008840821e-01
  +6.60893694075e-01
  +7.86834689235e-01
  +9.36257465366e-01
  +1.09423617355e+00
  +1.24499908536e+00
  +1.37349025855e+00
  +1.46687868150e+00
  +1.51583889119e+00
  +1.51548247239e+00
  +1.46584676771e+00
  +1.37188131142e+00
  +1.24297513312e+00
  +1.09200056785e+00
  +9.34036743587e-01
  +7.84843967304e-01
  +6.59333134337e-01
  +5.70034968230e-01
  +5.25865152183e-01
  +5.31234807732e-01
  +5.85607062605e-01
  +6.83553457301e-01
  +8.15291789655e-01
  +9.67670117024e-01
  +1.12546616288e+00
  +1.27293032299e+00
  +1.39533278313e+00
  +1.48044957609e+00
  +1.51978516918e+00
  +1.50940808494e+00
  +1.45035648735e+00
  +1.34852739239e+00
  +1.21408797254e+00
  +1.06046260614e+00
  +9.02991188038e-01
  +7.57404274072e-01
  +6.38234473176e-01
  +5.57384983483e-01
  +5.22923619071e-01
  +5.38296592564e-01
  +6.01967765662e-01
  +7.07579266712e-01
  +8.44584985282e-01
  +9.99302288424e-01
  +1.15627906900e+00
  +1.29985204216e+00
  +1.41567019801e+00
  +1.49217430168e+00
  +1.52172487914e+00
  +1.50137014538e+00
  +1.43314182321e+00
  +1.32385471348e+00
  +1.18442356173e+00
  +1.02877002470e+00
</dep>
<dep Vout.Vt time>
  +5.67096394954e-08
  +4.05086751266e-01
  +7.29831919966e-01
  +9.76859178469e-01
  +1.14752766555e+00
  +1.24410332166e+00
  +1.27127258622e+00
  +1.23694942355e+00
  +1.15244801274e+00
  +1.03205846147e+00
  +8.92143958573e-01
  +7.49899512067e-01
  +6.21915814328e-01
  +5.22752218622e-01
  +4.63623106369e-01
  +4.51410269428e-01
  +4.88055974625e-01
  +5.70439738773e-01
  +6.90732244227e-01
  +8.37219970675e-01
  +9.95494049314e-01
  +1.14991038487e+00
  +1.28517295988e+00
  +1.38786114303e+00
  +1.44778900478e+00
  +1.45902219593e+00
  +1.42047437347e+00
  +1.33602202557e+00
  +1.21412102435e+00
  +1.06695577359e+00
  +9.09234499971e-01
  +7.56713813432e-01
  +6.24633432527e-01
  +5.26185683451e-01
  +4.71202831851e-01
  +4.65179691600e-01
  +5.08718785593e-01
  +5.97472099072e-01
  +7.22583613385e-01
  +8.71553806855e-01
  +1.02951084854e+00
  +1.18068134238e+00
  +1.30997116127e+00
  +1.40447033437e+00
  +1.45474029863e+00
  +1.45576283866e+00
  +1.40743442506e+00
  +1.31458259957e+00
  +1.18647922850e+00
  +1.03591451004e+00
  +8.77927020305e-01
  +7.28290735916e-01
  +6.01948216480e-01
  +5.11516542863e-01
  +4.66025458863e-01
  +4.70017419863e-01
  +5.23093193547e-01
  +6.19955186459e-01
  +7.50930073575e-01
  +9.02937118353e-01
  +1.06079763513e+00
  +1.20875122283e+00
  +1.33202121117e+00
  +1.41829756543e+00
  +1.45896514256e+00
  +1.44996343847e+00
  +1.39219172949e+00
  +1.29141807321e+00
  +1.15770673949e+00
  +1.00440776282e+00
  +8.46831267680e-01
  +7.00711978915e-01
  +5.80640721432e-01
  +4.98608193859e-01
  +4.62804601790e-01
  +4.76806667778e-01
  +5.39215160857e-01
  +6.43797236212e-01
  +7.80111973413e-01
  +9.34546842167e-01
  +1.09168086350e+00
  +1.23581854014e+00
  +1.35256963159e+00
  +1.43027569482e+00
  +1.46117895236e+00
  +1.44219160791e+00
  +1.37520995641e+00
  +1.26692168372e+00
  +1.12814099257e+00
  +9.72727242678e-01
  +8.16198800605e-01
  +6.74184615051e-01
  +5.60868840334e-01
  +4.87565511530e-01
  +4.61594050942e-01
  +4.85548876627e-01
  +5.57038262179e-01
  +6.68922487990e-01
  +8.10027995873e-01
  +9.66265320918e-01
</dep>
<dep _net0.Vt time>
  +5.00000000000e+00
  +5.00000000000e+00
  +5.00000000000e+00
  +5.00000000000e+00
  +5.00000000000e+00
  +5.00000000000e+00
  +5.00000000000e+00
  +5.00000000000e+00
  +5.00000000000e+00
  +5.00000000000e+00
  +5.00000000000e+00
  +5.00000000000e+00
  +5.00000000000e+00
  +5.00000000000e+00
  +5.00000000000e+00
  +5.00000000000e+00
  +5.00000000000e+00
  +5.00000000000e+00
  +5.00000000000e+00
  +5.00000000000e+00
  +5.00000000000e+00
  +5.00000000000e+00
  +5.00000000000e+00
  +5.00000000000e+00
  +5.00000000000e+00
  +5.00000000000e+00
  +5.00000000000e+00
  +5.00000000000e+00
  +5.00000000000e+00
  +5.00000000000e+00
  +5.00000000000e+00
  +5.00000000000e+00
  +5.00000000000e+00
  +5.00000000000e+00
  +5.00000000000e+00
  +5.00000000000e+00
  +5.00000000000e+00
  +5.00000000000e+00
  +5.00000000000e+00
