<Qucs Dataset 0.0.18>
<indep time 100>
  +0.00000000000e+00
  +5.05050505051e-04
  +1.01010101010e-03
  +1.51515151515e-03
  +2.02020202020e-03
  +2.52525252525e-03
  +3.03030303030e-03
  +3.53535353535e-03
  +4.04040404040e-03
  +4.54545454545e-03
  +5.05050505051e-03
  +5.55555555556e-03
  +6.06060606061e-03
  +6.56565656566e-03
  +7.07070707071e-03
  +7.57575757576e-03
  +8.08080808081e-03
  +8.58585858586e-03
  +9.09090909091e-03
  +9.59595959596e-03
  +1.01010101010e-02
  +1.06060606061e-02
  +1.11111111111e-02
  +1.16161616162e-02
  +1.21212121212e-02
  +1.26262626263e-02
  +1.31313131313e-02
  +1.36363636364e-02
  +1.41414141414e-02
  +1.46464646465e-02
  +1.51515151515e-02
  +1.56565656566e-02
  +1.61616161616e-02
  +1.66666666667e-02
  +1.71717171717e-02
  +1.76767676768e-02
  +1.81818181818e-02
  +1.86868686869e-02
  +1.91919191919e-02
  +1.96969696970e-02
  +2.02020202020e-02
  +2.07070707071e-02
  +2.12121212121e-02
  +2.17171717172e-02
  +2.22222222222e-02
  +2.27272727273e-02
  +2.32323232323e-02
  +2.37373737374e-02
  +2.42424242424e-02
  +2.47474747475e-02
  +2.52525252525e-02
  +2.57575757576e-02
  +2.62626262626e-02
  +2.67676767677e-02
  +2.72727272727e-02
  +2.77777777778e-02
  +2.82828282828e-02
  +2.87878787879e-02
  +2.92929292929e-02
  +2.97979797980e-02
  +3.03030303030e-02
  +3.08080808081e-02
  +3.13131313131e-02
  +3.18181818182e-02
  +3.23232323232e-02
  +3.28282828283e-02
  +3.33333333333e-02
  +3.38383838384e-02
  +3.43434343434e-02
  +3.48484848485e-02
  +3.53535353535e-02
  +3.58585858586e-02
  +3.63636363636e-02
  +3.68686868687e-02
  +3.73737373737e-02
  +3.78787878788e-02
  +3.83838383838e-02
  +3.88888888889e-02
  +3.93939393939e-02
  +3.98989898990e-02
  +4.04040404040e-02
  +4.09090909091e-02
  +4.14141414141e-02
  +4.19191919192e-02
  +4.24242424242e-02
  +4.29292929293e-02
  +4.34343434343e-02
  +4.39393939394e-02
  +4.44444444444e-02
  +4.49494949495e-02
  +4.54545454545e-02
  +4.59595959596e-02
  +4.64646464646e-02
  +4.69696969697e-02
  +4.74747474747e-02
  +4.79797979798e-02
  +4.84848484848e-02
  +4.89898989899e-02
  +4.94949494949e-02
  +5.00000000000e-02
</indep>
<dep V2.It time>
  -1.24999998582e-04
  -1.14872857818e-04
  -1.06754270521e-04
  -1.00578591483e-04
  -9.63118722692e-05
  -9.38974692593e-05
  -9.32182812943e-05
  -9.40763528904e-05
  -9.61889134334e-05
  -9.91986412095e-05
  -1.02696475600e-04
  -1.06252557205e-04
  -1.09452092370e-04
  -1.11931198039e-04
  -1.13409398800e-04
  -1.13714737953e-04
  -1.12798571539e-04
  -1.10738949309e-04
  -1.07731585904e-04
  -1.04069359154e-04
  -1.00112599002e-04
  -9.62521846488e-05
  -9.28706605897e-05
  -9.03035067758e-05
  -8.88052657380e-05
  -8.85244416356e-05
  -8.94881631924e-05
  -9.15994422136e-05
  -9.46470011566e-05
  -9.83261046273e-05
  -1.02269118287e-04
  -1.06082109472e-04
  -1.09384101389e-04
  -1.11845324988e-04
  -1.13219898149e-04
  -1.13370495717e-04
  -1.12282025638e-04
  -1.10063139686e-04
  -1.06935403817e-04
  -1.03211091590e-04
  -9.92621227595e-05
  -9.54828067944e-05
  -9.22505750708e-05
  -8.98881043461e-05
  -8.86313737523e-05
  -8.86058676937e-05
  -8.98140662712e-05
  -9.21353794072e-05
  -9.53379758801e-05
  -9.91020816600e-05
  -1.03051795940e-04
  -1.06792718321e-04
  -1.09951281051e-04
  -1.12212045464e-04
  -1.13349323199e-04
  -1.13249507575e-04
  -1.11922575296e-04
  -1.09501026190e-04
  -1.06226701712e-04
  -1.02426536729e-04
  -9.84800301765e-05
  -9.47812060999e-05
  -9.16994866646e-05
  -8.95425731520e-05
  -8.85258995480e-05
  -8.87509462026e-05
  -9.01952205907e-05
  -9.27145455231e-05
  -9.60573459310e-05
  -9.98897836214e-05
  -1.03829191783e-04
  -1.07482154245e-04
  -1.10483941443e-04
  -1.12534773292e-04
  -1.13429841977e-04
  -1.13079792237e-04
  -1.11519587089e-04
  -1.08905005049e-04
  -1.05497165040e-04
  -1.01636307211e-04
  -9.77080522884e-05
  -9.41045832010e-05
  -9.11857858222e-05
  -8.92431135182e-05
  -8.84705344091e-05
  -8.89451930079e-05
  -9.06197489583e-05
  -9.33269347927e-05
  -9.67964605593e-05
  -1.00681811912e-04
  -1.04595011024e-04
  -1.08145400063e-04
  -1.10978280470e-04
  -1.12810851672e-04
  -1.13460127279e-04
  -1.12861248152e-04
  -1.11074017912e-04
  -1.08276924323e-04
  -1.04749250492e-04
  -1.00843289183e-04
</dep>
<dep V1.It time>
  +1.24761206890e-04
  +7.23664935390e-05
  +3.01462066398e-05
  -1.97296120631e-06
  -2.41669951018e-05
  -3.67297356986e-05
  -4.02693354435e-05
  -3.58143849420e-05
  -2.48345965277e-05
  -9.18749171123e-06
  +9.00016404872e-06
  +2.74932008871e-05
  +4.41345528245e-05
  +5.70316509057e-05
  +6.47254498907e-05
  +6.63210573859e-05
  +6.15647426944e-05
  +5.08615902720e-05
  +3.52286280682e-05
  +1.61882895466e-05
  -4.38602794432e-06
  -2.44618522044e-05
  -4.20497711060e-05
  -5.54048890552e-05
  -6.32030031819e-05
  -6.46711618941e-05
  -5.96675088738e-05
  -4.86956147845e-05
  -3.28534489694e-05
  -1.37251213459e-05
  +6.77796991271e-06
  +2.66074320011e-05
  +4.37819954987e-05
  +5.65864434595e-05
  +6.37415784104e-05
  +6.45325764154e-05
  +5.88801722296e-05
  +4.73485875609e-05
  +3.10893094575e-05
  +1.17256618408e-05
  -8.80864730961e-06
  -2.84632406611e-05
  -4.52752610717e-05
  -5.75663511738e-05
  -6.41087932642e-05
  -6.42493256682e-05
  -5.79742627256e-05
  -4.59099208594e-05
  -2.92611668796e-05
  -9.69035747915e-06
  +1.08480781748e-05
  +3.03032642356e-05
  +4.67324126296e-05
  +5.84947807594e-05
  +6.44161487415e-05
  +6.39050109723e-05
  +5.70124572765e-05
  +4.44267394954e-05
  +2.74047991231e-05
  +7.64624218272e-06
  -1.28757603007e-05
  -3.21122776390e-05
  -4.81420405243e-05
  -5.93645263956e-05
  -6.46588273827e-05
  -6.34964829599e-05
  -5.59936672074e-05
  -4.28993610577e-05
  -2.55211379464e-05
  -5.59452532072e-06
  +1.48908205484e-05
  +3.38890903872e-05
  +4.95034015277e-05
  +6.01744026699e-05
  +6.48364218709e-05
  +6.30240487582e-05
  +5.49183025267e-05
  +4.13284997665e-05
  +2.36118613822e-05
  +3.53721537944e-06
  -1.68903751740e-05
  -3.56315132464e-05
  -5.08144740237e-05
  -6.09231762197e-05
  -6.49483071198e-05
  -6.24879456848e-05
  -5.37874767696e-05
  -3.97159693721e-05
  -2.16783461900e-05
  -1.47609256605e-06
  +1.88734649064e-05
  +3.73388129730e-05
  +5.20751883585e-05
  +6.16114873422e-05
  +6.49954898808e-05
  +6.18891523863e-05
  +5.26026713703e-05
  +3.80634726675e-05
  +1.97232601749e-05
  -5.86410205716e-07
</dep>
<dep V4.It time>
  -9.95218706503e-06
  -1.00054472933e-05
  -1.00047314026e-05
  -1.00036221474e-05
  -1.00022270002e-05
  -1.00006846977e-05
  -9.99914705570e-06
  -9.99776672264e-06
  -9.99668012239e-06
  -9.99599563640e-06
  -9.99578212130e-06
  -9.99605945667e-06
  -9.99680035489e-06
  -9.99793084872e-06
  -9.99933822360e-06
  -1.00008812258e-05
  -1.00024058303e-05
  -1.00037595061e-05
  -1.00048069925e-05
  -1.00054436046e-05
  -1.00056071564e-05
  -1.00052780732e-05
  -1.00044923980e-05
  -1.00033286650e-05
  -1.00019014302e-05
  -1.00003539767e-05
  -9.99884082090e-06
  -9.99751260445e-06
  -9.99650175629e-06
  -9.99590936127e-06
  -9.99579483915e-06
  -9.99616944660e-06
  -9.99699617645e-06
  -9.99819289932e-06
  -9.99963957488e-06
  -1.00011917611e-05
  -1.00026945490e-05
  -1.00039969574e-05
  -1.00049697548e-05
  -1.00055150096e-05
  -1.00055788891e-05
  -1.00051553297e-05
  -1.00042867668e-05
  -1.00030594470e-05
  -1.00015964386e-05
  -1.00000436395e-05
  -9.99855583844e-06
  -9.99728065995e-06
  -9.99634700363e-06
  -9.99584703256e-06
  -9.99583094599e-06
  -9.99630037758e-06
  -9.99720911240e-06
  -9.99846646195e-06
  -9.99994645524e-06
  -1.00015011604e-05
  -1.00029751826e-05
  -1.00042214760e-05
  -1.00051152418e-05
  -1.00055670870e-05
  -1.00055332019e-05
  -1.00050150077e-05
  -1.00040666256e-05
  -1.00027816802e-05
  -1.00012882093e-05
  -9.99973594380e-06
  -9.99827923576e-06
  -9.99706363516e-06
  -9.99621026011e-06
  -9.99580399498e-06
  -9.99588667863e-06
  -9.99644968120e-06
  -9.99743625925e-06
  -9.99874915078e-06
  -1.00002563722e-05
  -1.00018075380e-05
  -1.00032473650e-05
  -1.00044318868e-05
  -1.00052435272e-05
  -1.00055997097e-05
  -1.00054681908e-05
  -1.00048582932e-05
  -1.00038327690e-05
  -1.00024947905e-05
  -1.00009775160e-05
  -9.99943206463e-06
  -9.99801247184e-06
  -9.99686060255e-06
  -9.99609130869e-06
  -9.99578139509e-06
  -9.99596218875e-06
  -9.99661561496e-06
  -9.99767690814e-06
  -9.99903973775e-06
  -1.00005680109e-05
  -1.00021090160e-05
  -1.00035086485e-05
  -1.00046270720e-05
  -1.00053524679e-05
  -1.00056129505e-05
</dep>
<dep V3.It time>
  -6.27749708026e-11
  -9.54180311983e-11
  -7.93414508380e-11
  -5.67775179333e-11
  -2.95960560139e-11
  -1.98045011039e-13
  +2.89064224871e-11
  +5.51731530645e-11
  +7.62244330120e-11
  +9.00327975716e-11
  +9.51604902263e-11
  +9.06726101585e-11
  +7.69538990077e-11
  +5.51271782362e-11
  +2.73570499690e-11
  -3.39233823591e-12
  -3.37639447028e-11
  -6.03752310971e-11
  -8.06341495215e-11
  -9.22822695765e-11
  -9.46762341888e-11
  -8.75065675449e-11
  -7.20720769167e-11
  -4.97394453734e-11
  -2.28818365582e-11
  +6.06898485421e-12
  +3.44005632684e-11
  +5.96412028424e-11
  +7.93437643775e-11
  +9.15791566903e-11
  +9.47702459504e-11
  +8.85745811117e-11
  +7.31686995075e-11
  +4.99922640569e-11
  +2.13522615870e-11
  -9.57647261495e-12
  -3.94030851894e-11
  -6.50413212880e-11
  -8.36759201600e-11
  -9.35554613061e-11
  -9.39462783754e-11
  -8.50254970485e-11
  -6.80272788693e-11
  -4.46539041204e-11
  -1.71736475363e-11
  +1.18165804277e-11
  +3.97815966151e-11
  +6.41653883128e-11
  +8.24993821124e-11
  +9.29159280315e-11
  +9.43425955927e-11
  +8.62024499390e-11
  +6.90901035976e-11
  +4.46168687119e-11
  +1.52523073093e-11
  -1.57379279057e-11
  -4.49554597966e-11
  -6.93387234083e-11
  -8.63248921632e-11
  -9.43883473037e-11
  -9.28986418196e-11
  -8.22851849166e-11
  -6.38561337538e-11
  -3.94159849723e-11
  -1.14102893682e-11
  +1.75854679184e-11
  +4.50721496795e-11
  +6.83171956796e-11
  +8.52152502113e-11
  +9.40075573780e-11
  +9.34749815161e-11
  +8.33939095472e-11
  +6.46664429520e-11
  +3.90481187328e-11
  +9.07849192754e-12
  -2.18431501150e-11
  -5.03196747663e-11
  -7.33911047582e-11
  -8.86878497052e-11
  -9.48497219450e-11
  -9.14896241878e-11
  -7.91949744494e-11
  -5.93271919589e-11
  -3.40738999974e-11
  -5.64948237213e-12
  +2.32844151705e-11
  +5.01404349896e-11
  +7.22736029623e-11
  +8.77130901249e-11
  +9.46536849370e-11
  +9.21607706330e-11
  +8.03555625524e-11
  +6.00545268426e-11
  +3.32536093012e-11
  +2.91446290138e-12
  -2.77928240554e-11
  -5.54559840166e-11
  -7.71727285980e-11
  -9.07029111257e-11
  -9.49246136545e-11
</dep>
<dep _net1.Vt time>
  -1.00000000000e+01
  -1.00000000000e+01
  -1.00000000000e+01
  -1.00000000000e+01
  -1.00000000000e+01
  -1.00000000000e+01
  -1.00000000000e+01
  -1.00000000000e+01
  -1.00000000000e+01
  -1.00000000000e+01
  -1.00000000000e+01
  -1.00000000000e+01
  -1.00000000000e+01
  -1.00000000000e+01
  -1.00000000000e+01
  -1.00000000000e+01
  -1.00000000000e+01
  -1.00000000000e+01
  -1.00000000000e+01
  -1.00000000000e+01
  -1.00000000000e+01
  -1.00000000000e+01
  -1.00000000000e+01
  -1.00000000000e+01
  -1.00000000000e+01
  -1.00000000000e+01
  -1.00000000000e+01
  -1.00000000000e+01
  -1.00000000000e+01
  -1.00000000000e+01
  -1.00000000000e+01
  -1.00000000000e+01
  -1.00000000000e+01
  -1.00000000000e+01
  -1.00000000000e+01
  -1.00000000000e+01
  -1.00000000000e+01
  -1.00000000000e+01
  -1.00000000000e+01
  -1.00000000000e+01
  -1.00000000000e+01
  -1.00000000000e+01
  -1.00000000000e+01
  -1.00000000000e+01
  -1.00000000000e+01
  -1.00000000000e+01
  -1.00000000000e+01
  -1.00000000000e+01
  -1.00000000000e+01
  -1.00000000000e+01
  -1.00000000000e+01
  -1.00000000000e+01
  -1.00000000000e+01
  -1.00000000000e+01
  -1.00000000000e+01
  -1.00000000000e+01
  -1.00000000000e+01
  -1.00000000000e+01
  -1.00000000000e+01
  -1.00000000000e+01
  -1.00000000000e+01
  -1.00000000000e+01
  -1.00000000000e+01
  -1.00000000000e+01
  -1.00000000000e+01
  -1.00000000000e+01
  -1.00000000000e+01
  -1.00000000000e+01
  -1.00000000000e+01
  -1.00000000000e+01
  -1.00000000000e+01
  -1.00000000000e+01
  -1.00000000000e+01
  -1.00000000000e+01
  -1.00000000000e+01
  -1.00000000000e+01
  -1.00000000000e+01
  -1.00000000000e+01
  -1.00000000000e+01
  -1.00000000000e+01
  -1.00000000000e+01
  -1.00000000000e+01
  -1.00000000000e+01
  -1.00000000000e+01
  -1.00000000000e+01
  -1.00000000000e+01
  -1.00000000000e+01
  -1.00000000000e+01
  -1.00000000000e+01
  -1.00000000000e+01
  -1.00000000000e+01
  -1.00000000000e+01
  -1.00000000000e+01
  -1.00000000000e+01
  -1.00000000000e+01
  -1.00000000000e+01
  -1.00000000000e+01
  -1.00000000000e+01
  -1.00000000000e+01
  -1.00000000000e+01
</dep>
<dep _net3.Vt time>
  -4.77571475604e-02
  +5.52657684171e-03
  +4.79998616670e-03
  +3.67261612645e-03
  +2.25381967767e-03
  +6.84830561396e-04
  -8.79634802745e-04
  -2.28399443414e-03
  -3.38927626953e-03
  -4.08520012844e-03
  -4.30181471103e-03
  -4.01931531735e-03
  -3.26550037408e-03
  -2.11577893125e-03
  -6.84774070480e-04
  +8.84005601790e-04
  +2.43413833490e-03
  +3.81077325454e-03
  +4.87627321166e-03
  +5.52438905230e-03
  +5.69144935608e-03
  +5.35752450674e-03
  +4.55876553875e-03
  +3.37514215971e-03
  +1.92299612213e-03
  +3.48320148772e-04
  -1.19149487532e-03
  -2.54285906622e-03
  -3.57099671888e-03
  -4.17308157852e-03
  -4.28903576039e-03
  -3.90745033614e-03
  -3.06634472443e-03
  -1.84929608583e-03
  -3.78392902825e-04
  +1.19973722263e-03
  +2.72778218133e-03
  +4.05223854112e-03
  +5.04192201095e-03
  +5.59711470661e-03
  +5.66286818511e-03
  +5.23280165855e-03
  +4.34971202704e-03
  +3.10124531217e-03
  +1.61264475284e-03
  +3.24648445036e-05
  -1.48146716733e-03
  -2.77875539467e-03
  -3.72829116323e-03
  -4.23642211236e-03
  -4.25214225213e-03
  -3.77420635069e-03
  -2.84976702360e-03
  -1.57113036400e-03
  -6.63785584808e-05
  +1.51431630379e-03
  +3.01314754558e-03
  +4.28066156096e-03
  +5.19004355629e-03
  +5.65023851276e-03
  +5.61655603954e-03
  +5.09012830217e-03
  +4.12576395068e-03
  +2.81864275268e-03
  +1.29899356095e-03
  -2.80642578203e-04
  -1.76285584131e-03
  -2.99955553358e-03
  -3.86735757368e-03
  -4.28003046539e-03
  -4.19534421463e-03
  -3.62233703747e-03
  -2.61879528987e-03
  -1.28368939217e-03
  +2.48718213206e-04
  +1.82582477973e-03
  +3.28993278686e-03
  +4.49470262568e-03
  +5.32063485486e-03
  +5.68357691071e-03
  +5.55058521156e-03
  +4.93082166133e-03
  +3.88794017780e-03
  +2.52669709893e-03
  +9.82790515203e-04
  -5.89865084461e-04
  -2.03427056911e-03
  -3.20605889462e-03
  -3.98821964518e-03
  -4.30290222820e-03
  -4.11848405472e-03
  -3.45347094964e-03
  -2.37401737587e-03
  -9.88270232611e-04
  +5.65605819160e-04
  +2.13239868852e-03
  +3.55564546501e-03
  +4.69323765442e-03
  +5.43152316491e-03
  +5.69720818956e-03
</dep>
<dep Vout.Vt time>
  +5.67096394954e-08
  +4.05085687271e-01
  +7.29829179160e-01
  +9.76856340669e-01
  +1.14752510923e+00
  +1.24410122963e+00
  +1.27126874823e+00
  +1.23694588438e+00
  +1.15244346266e+00
  +1.03205435162e+00
  +8.92140975983e-01
  +7.49897711818e-01
  +6.21916305183e-01
  +5.22752078459e-01
  +4.63624047992e-01
  +4.51410481862e-01
  +4.88057138440e-01
  +5.70442027648e-01
  +6.90736563830e-01
  +8.37225633836e-01
  +9.95496039932e-01
  +1.14991261405e+00
  +1.28517357641e+00
  +1.38785972897e+00
  +1.44778937048e+00
  +1.45902233458e+00
  +1.42047347230e+00
  +1.33602231146e+00
  +1.21411995374e+00
  +1.06695581491e+00
  +9.09235268526e-01
  +7.56715621132e-01
  +6.24635944444e-01
  +5.26187000462e-01
  +4.71204074039e-01
  +4.65180171311e-01
  +5.08718974470e-01
  +5.97474412556e-01
  +7.22583847328e-01
  +8.71556336406e-01
  +1.02951508962e+00
  +1.18068772823e+00
  +1.30997699717e+00
  +1.40447582616e+00
  +1.45474504991e+00
  +1.45576529225e+00
  +1.40743734915e+00
  +1.31458482371e+00
  +1.18648096479e+00
  +1.03591673360e+00
  +8.77928162415e-01
  +7.28291267174e-01
  +6.01948757966e-01
  +5.11518181452e-01
  +4.66027072043e-01
  +4.70019696994e-01
  +5.23096988163e-01
  +6.19958952406e-01
  +7.50931931500e-01
  +9.02938530845e-01
  +1.06079879294e+00
  +1.20875175600e+00
  +1.33202053342e+00
  +1.41829707392e+00
  +1.45896401808e+00
  +1.44996215190e+00
  +1.39219117637e+00
  +1.29141817908e+00
  +1.15770616276e+00
  +1.00440865515e+00
  +8.46832328697e-01
  +7.00713830213e-01
  +5.80642342274e-01
  +4.98609068330e-01
  +4.62806320925e-01
  +4.76808310504e-01
  +5.39216516442e-01
  +6.43799798051e-01
  +7.80113398398e-01
  +9.34547711578e-01
  +1.09167790846e+00
  +1.23581667196e+00
  +1.35256856711e+00
  +1.43027545927e+00
  +1.46117862363e+00
  +1.44219227968e+00
  +1.37521004167e+00
  +1.26692260829e+00
  +1.12814157763e+00
  +9.72727523500e-01
  +8.16199559025e-01
  +6.74183997477e-01
  +5.60868781190e-01
  +4.87565933128e-01
  +4.61594908833e-01
  +4.85550073902e-01
  +5.57039283515e-01
  +6.68923027083e-01
  +8.10029980315e-01
  +9.66268432670e-01
</dep>
<dep Vout2.Vt time>
  +1.02169759567e+00
  +1.58952878642e+00
  +1.26308917885e+00
  +1.01344946629e+00
  +8.39504947062e-01
  +7.39315894275e-01
  +7.08554561823e-01
  +7.39660595522e-01
  +8.21640536035e-01
  +9.40453779927e-01
  +1.07989681011e+00
  +1.22281707040e+00
  +1.35255714495e+00
  +1.45438474157e+00
  +1.51681563801e+00
  +1.53264074919e+00
  +1.49955406539e+00
  +1.42032145159e+00
  +1.30245702864e+00
  +1.15743363376e+00
  +9.99519745341e-01
  +8.44308072912e-01
  +7.07185697065e-01
  +6.01758716504e-01
  +5.38477862678e-01
  +5.23621045477e-01
  +5.58634680667e-01
  +6.39992096039e-01
  +7.59550907751e-01
  +9.05355757109e-01
  +1.06283752538e+00
  +1.21626190013e+00
  +1.35029967250e+00
  +1.45156534931e+00
  +1.50994163415e+00
  +1.51959682009e+00
  +1.47956543709e+00
  +1.39384123093e+00
  +1.27098531230e+00
  +1.12326436300e+00
  +9.65429459473e-01
  +8.13240675979e-01
  +6.81896693168e-01
  +5.84510052907e-01
  +5.30807534699e-01
  +5.26152211736e-01
  +5.71006038038e-01
  +6.60890655389e-01
  +7.86832722077e-01
  +9.36254819473e-01
  +1.09423475796e+00
  +1.24499813437e+00
  +1.37348898669e+00
  +1.46687693176e+00
  +1.51583730908e+00
  +1.51548016566e+00
  +1.46584137160e+00
  +1.37187800106e+00
  +1.24297396116e+00
  +1.09199898741e+00
  +9.34033739840e-01
  +7.84843582980e-01
  +6.59333930446e-01
  +5.70036232174e-01
  +5.25866364459e-01
  +5.31236083374e-01
  +5.85607737194e-01
  +6.83553517880e-01
  +8.15292796857e-01
  +9.67668125016e-01
  +1.12546671149e+00
  +1.27292929539e+00
  +1.39533067809e+00
  +1.48044935686e+00
  +1.51978347578e+00
  +1.50940674996e+00
  +1.45035558757e+00
  +1.34852557939e+00
  +1.21408718598e+00
  +1.06046093869e+00
  +9.02997383468e-01
  +7.57406301199e-01
  +6.38236128142e-01
  +5.57384016509e-01
  +5.22923919906e-01
  +5.38296015393e-01
  +6.01967294551e-01
  +7.07578288582e-01
  +8.44584595412e-01
  +9.99302229221e-01
  +1.15628172014e+00
  +1.29985207258e+00
  +1.41567057173e+00
  +1.49217397959e+00
  +1.52172401982e+00
  +1.50136883178e+00
  +1.43314107673e+00
  +1.32385448633e+00
  +1.18442107837e+00
  +1.02876612911e+00
</dep>
<dep _net0.Vt time>
  +5.00000000000e+00
  +5.00000000000e+00
  +5.00000000000e+00
  +5.00000000000e+00
  +5.00000000000e+00
  +5.00000000000e+00
  +5.00000000000e+00
  +5.00000000000e+00
  +5.00000000000e+00
  +5.00000000000e+00
  +5.00000000000e+00
  +5.00000000000e+00
  +5.00000000000e+00
  +5.00000000000e+00
  +5.00000000000e+00
  +5.00000000000e+00
  +5.00000000000e+00
  +5.00000000000e+00
  +5.00000000000e+00
  +5.00000000000e+00
  +5.00000000000e+00
  +5.00000000000e+00
  +5.00000000000e+00
  +5.00000000000e+00
  +5.00000000000e+00
  +5.00000000000e+00
  +5.00000000000e+00
  +5.00000000000e+00
  +5.00000000000e+00
  +5.00000000000e+00
  +5.00000000000e+00
  +5.00000000000e+00
  +5.00000000000e+00
  +5.00000000000e+00
  +5.00000000000e+00
  +5.00000000000e+00
  +5.00000000000e+00
  +5.00000000000e+00
  +5.00000000000e+00
