<Qucs Dataset 0.0.18>
<indep time 100>
  +0.00000000000e+00
  +5.05050505051e-04
  +1.01010101010e-03
  +1.51515151515e-03
  +2.02020202020e-03
  +2.52525252525e-03
  +3.03030303030e-03
  +3.53535353535e-03
  +4.04040404040e-03
  +4.54545454545e-03
  +5.05050505051e-03
  +5.55555555556e-03
  +6.06060606061e-03
  +6.56565656566e-03
  +7.07070707071e-03
  +7.57575757576e-03
  +8.08080808081e-03
  +8.58585858586e-03
  +9.09090909091e-03
  +9.59595959596e-03
  +1.01010101010e-02
  +1.06060606061e-02
  +1.11111111111e-02
  +1.16161616162e-02
  +1.21212121212e-02
  +1.26262626263e-02
  +1.31313131313e-02
  +1.36363636364e-02
  +1.41414141414e-02
  +1.46464646465e-02
  +1.51515151515e-02
  +1.56565656566e-02
  +1.61616161616e-02
  +1.66666666667e-02
  +1.71717171717e-02
  +1.76767676768e-02
  +1.81818181818e-02
  +1.86868686869e-02
  +1.91919191919e-02
  +1.96969696970e-02
  +2.02020202020e-02
  +2.07070707071e-02
  +2.12121212121e-02
  +2.17171717172e-02
  +2.22222222222e-02
  +2.27272727273e-02
  +2.32323232323e-02
  +2.37373737374e-02
  +2.42424242424e-02
  +2.47474747475e-02
  +2.52525252525e-02
  +2.57575757576e-02
  +2.62626262626e-02
  +2.67676767677e-02
  +2.72727272727e-02
  +2.77777777778e-02
  +2.82828282828e-02
  +2.87878787879e-02
  +2.92929292929e-02
  +2.97979797980e-02
  +3.03030303030e-02
  +3.08080808081e-02
  +3.13131313131e-02
  +3.18181818182e-02
  +3.23232323232e-02
  +3.28282828283e-02
  +3.33333333333e-02
  +3.38383838384e-02
  +3.43434343434e-02
  +3.48484848485e-02
  +3.53535353535e-02
  +3.58585858586e-02
  +3.63636363636e-02
  +3.68686868687e-02
  +3.73737373737e-02
  +3.78787878788e-02
  +3.83838383838e-02
  +3.88888888889e-02
  +3.93939393939e-02
  +3.98989898990e-02
  +4.04040404040e-02
  +4.09090909091e-02
  +4.14141414141e-02
  +4.19191919192e-02
  +4.24242424242e-02
  +4.29292929293e-02
  +4.34343434343e-02
  +4.39393939394e-02
  +4.44444444444e-02
  +4.49494949495e-02
  +4.54545454545e-02
  +4.59595959596e-02
  +4.64646464646e-02
  +4.69696969697e-02
  +4.74747474747e-02
  +4.79797979798e-02
  +4.84848484848e-02
  +4.89898989899e-02
  +4.94949494949e-02
  +5.00000000000e-02
</indep>
<dep V1.It time>
  +4.05700245068e-05
  -3.31426280056e-03
  -3.92260861321e-03
  -4.14098624251e-03
  -3.94546231503e-03
  -3.35387405784e-03
  -2.42433429139e-03
  -1.25266562177e-03
  +4.25413871964e-05
  +1.33246887750e-03
  +2.48900440420e-03
  +3.39674385634e-03
  +3.96531872388e-03
  +4.13806887425e-03
  +3.89782622833e-03
  +3.26827009044e-03
  +2.31250619635e-03
  +1.12621347389e-03
  -1.72194294963e-04
  -1.45274876320e-03
  -2.58754639391e-03
  -3.46454697209e-03
  -3.99884082781e-03
  -4.13510809308e-03
  -3.85754957980e-03
  -3.19240574178e-03
  -2.20580615030e-03
  -9.99532901803e-04
  +3.05107058646e-04
  +1.57843749353e-03
  +2.69377077296e-03
  +3.53992831880e-03
  +4.03266864976e-03
  +4.12291327667e-03
  +3.80154805423e-03
  +3.10068016631e-03
  +2.09026244514e-03
  +8.71395641587e-04
  -4.33912637583e-04
  -1.69531032719e-03
  -2.78671247295e-03
  -3.60112779167e-03
  -4.05906816286e-03
  -4.11233206145e-03
  -3.75404115732e-03
  -3.01796827471e-03
  -1.97847448853e-03
  -7.42337292060e-04
  +5.66465944127e-04
  +1.81798595061e-03
  +2.88766331866e-03
  +3.66888849305e-03
  +4.08379185703e-03
  +4.09107610768e-03
  +3.68989827241e-03
  +2.92034502028e-03
  +1.85940769979e-03
  +6.13196865617e-04
  -6.93897026553e-04
  -1.93097501337e-03
  -2.97463903768e-03
  -3.72328275511e-03
  -4.10292322895e-03
  -4.07312490601e-03
  -3.63519606571e-03
  -2.83128400611e-03
  -1.74315273034e-03
  -4.82283139441e-04
  +8.25508421853e-04
  +2.05011697637e-03
  +3.06996843194e-03
  +3.78304288642e-03
  +4.11851721114e-03
  +4.04281417133e-03
  +3.56364221597e-03
  +2.72839922928e-03
  +1.62118296822e-03
  +3.52397878656e-04
  -9.51076862479e-04
  -2.15884078002e-03
  -3.15071376822e-03
  -3.83059490986e-03
  -4.13024844594e-03
  -4.01737099629e-03
  -3.50165230287e-03
  -2.63322672498e-03
  -1.50086094655e-03
  -2.20344465809e-04
  +1.08120030577e-03
  +2.27418507865e-03
  +3.23978761459e-03
  +3.88197678708e-03
  +4.13658119534e-03
  +3.97828200874e-03
  +3.42276642202e-03
  +2.52564275793e-03
  +1.37652115972e-03
  +9.02696085775e-05
  -1.20427026935e-03
  -2.37801546183e-03
</dep>
<dep V2.It time>
  -1.24999999539e-04
  -1.16306598446e-04
  -1.14889594425e-04
  -1.14452115624e-04
  -1.15037965297e-04
  -1.16588274186e-04
  -1.18946347617e-04
  -1.21875744749e-04
  -1.25084618504e-04
  -1.28253165075e-04
  -1.31065864245e-04
  -1.33241290341e-04
  -1.34562582444e-04
  -1.34897767708e-04
  -1.34213563611e-04
  -1.32577597003e-04
  -1.30153565312e-04
  -1.27183610738e-04
  -1.23963689672e-04
  -1.20815197566e-04
  -1.18052045218e-04
  -1.15950501725e-04
  -1.14720889207e-04
  -1.14487581161e-04
  -1.15274545703e-04
  -1.17001882171e-04
  -1.19495185318e-04
  -1.22505051369e-04
  -1.25731848786e-04
  -1.28853933099e-04
  -1.31559926088e-04
  -1.33579424494e-04
  -1.34711028680e-04
  -1.34841818677e-04
  -1.33958505675e-04
  -1.32149352928e-04
  -1.29594630925e-04
  -1.26549430461e-04
  -1.23318003712e-04
  -1.20222059643e-04
  -1.17570939953e-04
  -1.15629344349e-04
  -1.14592256955e-04
  -1.14564729794e-04
  -1.15548975979e-04
  -1.17446326944e-04
  -1.20064765797e-04
  -1.23143334227e-04
  -1.26375016254e-04
  -1.29437811349e-04
  -1.32026269434e-04
  -1.33881812171e-04
  -1.34819117566e-04
  -1.34744752370e-04
  -1.33665940529e-04
  -1.31690410877e-04
  -1.29015413561e-04
  -1.25907974231e-04
  -1.22677640549e-04
  -1.19646922032e-04
  -1.17118584496e-04
  -1.15344838589e-04
  -1.14504437198e-04
  -1.14682261037e-04
  -1.15860469338e-04
  -1.17919824947e-04
  -1.20653083996e-04
  -1.23787674192e-04
  -1.27011271292e-04
  -1.30002398219e-04
  -1.32463166098e-04
  -1.34147096294e-04
  -1.34886511883e-04
  -1.34607312095e-04
  -1.33337829138e-04
  -1.31203601180e-04
  -1.28419011872e-04
  -1.25261242506e-04
  -1.22045320989e-04
  -1.19092111112e-04
  -1.16696581073e-04
  -1.15097921750e-04
  -1.14457719343e-04
  -1.14840372712e-04
  -1.16207324895e-04
  -1.18420270032e-04
  -1.21257628647e-04
  -1.24435525057e-04
  -1.27638217837e-04
  -1.30546039853e-04
  -1.32868474080e-04
  -1.34374304390e-04
  -1.34912628661e-04
  -1.34429941274e-04
  -1.32974208819e-04
  -1.30690944041e-04
  -1.27807745235e-04
  -1.24612336033e-04
  -1.21423871296e-04
  -1.18559676817e-04
</dep>
<dep V3.It time>
  -2.61522904999e-03
  -1.04721520229e-03
  -9.46118175268e-04
  -9.26253596865e-04
  -9.43275322311e-04
  -1.03664170217e-03
  -1.33064541233e-03
  -1.88403404232e-03
  -2.61518596697e-03
  -3.41296377482e-03
  -4.17374471509e-03
  -4.80183680762e-03
  -5.21169144849e-03
  -5.33979605248e-03
  -5.16467245903e-03
  -4.71561405587e-03
  -4.06111055419e-03
  -3.28881104239e-03
  -2.49535105351e-03
  -1.78594536326e-03
  -1.27078286628e-03
  -1.01503478256e-03
  -9.38395221784e-04
  -9.26658501984e-04
  -9.52893040673e-04
  -1.07497828899e-03
  -1.42193622460e-03
  -2.01961247654e-03
  -2.77284083017e-03
  -3.57127045933e-03
  -4.31289739150e-03
  -4.90373138479e-03
  -5.26125870360e-03
  -5.32882289150e-03
  -5.09499075604e-03
  -4.59859493702e-03
  -3.91315955543e-03
  -3.12855641300e-03
  -2.34323829157e-03
  -1.66395720475e-03
  -1.19904930740e-03
  -9.90065627177e-04
  -9.32922626660e-04
  -9.28369997760e-04
  -9.65957457729e-04
  -1.12280122839e-03
  -1.52364450779e-03
  -2.16146743916e-03
  -2.93230589791e-03
  -3.72724882277e-03
  -4.44597379281e-03
  -4.99623358611e-03
  -5.29907717699e-03
  -5.30556092523e-03
  -5.01464571442e-03
  -4.47378595088e-03
  -3.76108129291e-03
  -2.96831049544e-03
  -2.19532120451e-03
  -1.55071201113e-03
  -1.13826157094e-03
  -9.71035684388e-04
  -9.29258913611e-04
  -9.31502257153e-04
  -9.83471184347e-04
  -1.18104660611e-03
  -1.63513715193e-03
  -2.30858594391e-03
  -3.09270191764e-03
  -3.88009758341e-03
  -4.57230542430e-03
  -5.07872004729e-03
  -5.32490671454e-03
  -5.27027233830e-03
  -4.92438446039e-03
  -4.34216312180e-03
  -3.60584360643e-03
  -2.80873701119e-03
  -2.05251300458e-03
  -1.44699728887e-03
  -1.08792493715e-03
  -9.56727598428e-04
  -9.27097038661e-04
  -9.36340601024e-04
  -1.00659063004e-03
  -1.25023961929e-03
  -1.75557576393e-03
  -2.46010025520e-03
  -3.25320225514e-03
  -4.02924385078e-03
  -4.69107999287e-03
  -5.15069164944e-03
  -5.33847300637e-03
  -5.22317883537e-03
  -4.82440153295e-03
  -4.20445077639e-03
  -3.44820030114e-03
  -2.65081181588e-03
  -1.91580284549e-03
  -1.35350444370e-03
</dep>
<dep V4.It time>
  -2.69953857016e-03
  -4.44305488237e-03
  -4.94322042264e-03
  -5.13954799116e-03
  -4.96397683151e-03
  -4.47350791015e-03
  -3.84976309896e-03
  -3.24613049352e-03
  -2.69811973985e-03
  -2.22181226416e-03
  -1.84012016397e-03
  -1.57134855519e-03
  -1.41923313808e-03
  -1.37626177060e-03
  -1.43795815448e-03
  -1.61027468434e-03
  -1.89941395034e-03
  -2.29855690911e-03
  -2.78740511686e-03
  -3.34281195889e-03
  -3.94863228223e-03
  -4.55937848952e-03
  -5.01088653288e-03
  -5.13425244850e-03
  -4.88686504137e-03
  -4.35244443864e-03
  -3.72527008625e-03
  -3.13172276800e-03
  -2.59644502801e-03
  -2.13715400575e-03
  -1.77697653078e-03
  -1.53174902328e-03
  -1.40219235247e-03
  -1.38016412332e-03
  -1.46327903389e-03
  -1.65870404131e-03
  -1.97091189040e-03
  -2.38994917416e-03
  -2.89378233462e-03
  -3.46041983586e-03
  -4.07365952885e-03
  -4.66938469588e-03
  -5.06499849236e-03
  -5.11357402500e-03
  -4.79779348966e-03
  -4.22805233604e-03
  -3.60249471898e-03
  -3.01957354945e-03
  -2.49776694648e-03
  -2.05650312253e-03
  -1.71849184510e-03
  -1.49680266957e-03
  -1.38942770845e-03
  -1.38825365015e-03
  -1.49312065401e-03
  -1.71193527986e-03
  -2.04679217071e-03
  -2.48469474576e-03
  -3.00264792095e-03
  -3.57996382388e-03
  -4.19853682924e-03
  -4.77108755006e-03
  -5.10475113365e-03
  -5.07808714402e-03
  -4.69801987328e-03
  -4.10198110151e-03
  -3.48160728308e-03
  -2.90985959121e-03
  -2.40230166646e-03
  -1.98004358731e-03
  -1.66470257610e-03
  -1.46646081460e-03
  -1.38086851272e-03
  -1.40053947109e-03
  -1.52747462594e-03
  -1.76982399330e-03
  -2.12679711551e-03
  -2.58268659255e-03
  -3.11385805635e-03
  -3.70134100016e-03
  -4.32216519877e-03
  -4.86285740013e-03
  -5.12968126878e-03
  -5.02796248991e-03
  -4.58933009919e-03
  -3.97561921273e-03
  -3.36277690983e-03
  -2.80267446912e-03
  -2.31024471894e-03
  -1.90783974457e-03
  -1.61568421320e-03
  -1.44063422572e-03
  -1.37650106177e-03
  -1.41709094851e-03
  -1.56654913554e-03
  -1.83230466385e-03
  -2.21075920828e-03
  -2.68364515567e-03
  -3.22723416495e-03
  -3.82436085956e-03
</dep>
<dep Vout.Vt time>
  -2.52876753199e-02
  -6.70992805994e-01
  -7.94691279381e-01
  -8.42049607615e-01
  -8.07705558268e-01
  -6.94567151894e-01
  -5.13565396057e-01
  -2.83634832676e-01
  -2.82409277218e-02
  +2.27242793769e-01
  +4.57476682260e-01
  +6.39518635195e-01
  +7.55257813027e-01
  +7.93173013591e-01
  +7.49495005171e-01
  +6.28521024815e-01
  +4.42389331226e-01
  +2.09754699314e-01
  -4.61409407046e-02
  -2.99644990789e-01
  -5.25413677882e-01
  -7.01300127041e-01
  -8.10559755860e-01
  -8.41758058827e-01
  -7.91149885321e-01
  -6.63291426555e-01
  -4.70783742299e-01
  -2.33811235681e-01
  +2.36687321505e-02
  +2.76101544350e-01
  +4.98403084803e-01
  +6.68441470174e-01
  +7.69302343479e-01
  +7.90948285941e-01
  +7.31196515216e-01
  +5.96016213662e-01
  +3.98912010437e-01
  +1.59627837264e-01
  -9.78605012430e-02
  -3.47798277915e-01
  -5.65197696691e-01
  -7.28946406765e-01
  -8.23289800425e-01
  -8.38126993935e-01
  -7.71486268517e-01
  -6.29404672073e-01
  -4.26221846844e-01
  -1.83141281449e-01
  +7.53849911757e-02
  +3.23735182774e-01
  +5.37217652018e-01
  +6.94580504933e-01
  +7.80153688108e-01
  +7.85425453002e-01
  +7.09843090675e-01
  +5.60961802676e-01
  +3.53693121137e-01
  +1.08788627283e-01
  -1.49280774733e-01
  -3.94629520313e-01
  -6.02802965696e-01
  -7.53785993247e-01
  -8.32801883581e-01
  -8.31242466198e-01
  -7.48759766929e-01
  -5.93049582769e-01
  -3.80040527882e-01
  -1.31865129586e-01
  +1.26693171094e-01
  +3.69944187237e-01
  +5.73778032817e-01
  +7.17817604256e-01
  +7.87774499597e-01
  +7.76650709063e-01
  +6.85582942590e-01
  +5.23580701974e-01
  +3.06976385595e-01
  +5.73882924021e-02
  -2.00193483884e-01
  -4.39964639936e-01
  -6.38112310596e-01
  -7.75732669147e-01
  -8.39060742645e-01
  -8.21077999799e-01
  -7.23091189987e-01
  -5.54400892897e-01
  -3.32441608138e-01
  -8.01693248199e-02
  +1.77382494946e-01
  +4.14603537349e-01
  +6.07903559326e-01
  +7.38068703008e-01
  +7.92109906300e-01
  +7.64652010598e-01
  +6.58410494702e-01
  +4.84029059120e-01
  +2.58945421210e-01
  +5.67942409549e-03
  -2.50361366855e-01
  -4.83621061362e-01
</dep>
<dep _net2.Vt time>
  -8.44297887789e-03
  +8.15648289493e-03
  +4.71056448417e-03
  +5.90692956924e-04
  -3.58382604510e-03
  -7.21251030603e-03
  -9.76050763680e-03
  -1.12342244976e-02
  -1.16729106987e-02
  -1.10062977999e-02
  -9.26706150043e-03
  -6.59787319625e-03
  -3.25271659738e-03
  +4.47295242154e-04
  +4.13329660244e-03
  +7.43433041604e-03
  +1.00312245000e-02
  +1.16851125167e-02
  +1.22511387737e-02
  +1.17096222453e-02
  +1.01375292643e-02
  +7.54998294613e-03
  +3.91990433758e-03
  -2.57846330060e-04
  -4.37405896796e-03
  -7.81680211014e-03
  -1.01356204030e-02
  -1.14078706302e-02
  -1.16291699725e-02
  -1.07405411601e-02
  -8.79992927680e-03
  -5.97386012214e-03
  -2.52979658354e-03
  +1.19767123971e-03
  +4.83532558067e-03
  +8.01922306121e-03
  +1.04436920610e-02
  +1.18876304816e-02
  +1.22295858892e-02
  +1.14755517472e-02
  +9.70568459872e-03
  +6.89877469951e-03
  +3.10677703325e-03
  -1.10476281847e-03
  -5.13764286484e-03
  -8.37306871314e-03
  -1.04704636216e-02
  -1.15387654086e-02
  -1.15415638831e-02
  -1.04327645643e-02
  -8.29758020923e-03
  -5.32454360515e-03
  -1.79507573402e-03
  +1.94513980035e-03
  +5.51923580164e-03
  +8.57286152031e-03
  +1.08165207420e-02
  +1.20467302180e-02
  +1.21658551268e-02
  +1.12021563759e-02
  +9.23342414896e-03
  +6.20576164893e-03
  +2.27797060456e-03
  -1.94406260682e-03
  -5.86861474034e-03
  -8.88131097036e-03
  -1.07651748546e-02
  -1.16291187084e-02
  -1.14056451303e-02
  -1.00854302221e-02
  -7.76138375550e-03
  -4.65311124661e-03
  -1.05201015761e-03
  +2.68527729320e-03
  +6.18214150699e-03
  +9.09407512109e-03
  +1.11483160047e-02
  +1.21594663747e-02
  +1.20568136951e-02
  +1.08854219533e-02
  +8.71708973160e-03
  +5.47467815240e-03
  +1.43752201070e-03
  -2.77219448220e-03
  -6.56188853400e-03
  -9.34360878720e-03
  -1.10200548455e-02
  -1.16732114060e-02
  -1.12277918349e-02
  -9.69610618629e-03
  -7.19443879179e-03
  -3.96164909636e-03
  -3.03341254464e-04
  +3.41557929349e-03
  +6.82118501830e-03
  +9.58104212173e-03
  +1.14384339353e-02
  +1.22273515192e-02
  +1.19061855912e-02
  +1.05315427361e-02
</dep>
<dep _net0.Vt time>
  +1.84409202304e-08
  +3.47736062174e-01
  +4.04416223018e-01
  +4.21915375021e-01
  +3.98481388107e-01
  +3.36469032571e-01
  +2.42146095310e-01
  +1.24970210054e-01
  -3.38474016626e-03
  -1.30126603012e-01
  -2.42634569798e-01
  -3.29651613660e-01
  -3.82503297763e-01
  -3.95910708329e-01
  -3.68542544425e-01
  -3.03103880127e-01
  -2.06142612479e-01
  -8.73444295035e-02
  +4.14524131061e-02
  +1.67392097349e-01
  +2.77918191264e-01
  +3.61979931017e-01
  +4.11164431722e-01
  +4.20496753558e-01
  +3.89018171863e-01
  +3.19924713153e-01
  +2.20192587286e-01
  +9.97979452347e-02
  -2.92739514440e-02
  -1.54157323963e-01
  -2.62397043529e-01
  -3.43176979755e-01
  -3.88441147219e-01
  -3.93672747088e-01
  -3.58340227005e-01
  -2.85974117106e-01
  -1.83785236989e-01
  -6.19772184465e-02
  +6.72798515038e-02
  +1.91117614287e-01
  +2.97162401871e-01
  +3.74826226041e-01
  +4.16309721797e-01
  +4.17410808224e-01
  +3.78040960856e-01
  +3.02146922230e-01
  +1.97409368130e-01
  +7.42666309110e-02
  -5.50006501687e-02
  -1.77512453951e-01
  -2.81050777358e-01
  -3.55272486825e-01
  -3.92764702654e-01
  -3.89790094783e-01
  -3.46637621174e-01
  -2.67616435069e-01
  -1.60616542457e-01
  -3.63189692284e-02
  +9.28943780564e-02
  +2.14123118729e-01
  +3.15256620165e-01
  +3.86206456454e-01
  +4.19822512099e-01
  +4.12709558513e-01
  +3.65581226499e-01
  +2.83207002114e-01
  +1.73876640177e-01
  +4.84930323315e-02
  -8.04508516698e-02
  -2.00095928749e-01
  -2.98526643901e-01
  -3.65883851742e-01
  -3.95460475330e-01
  -3.84292483792e-01
  -3.33513165521e-01
  -2.48144047216e-01
  -1.36760474881e-01
  -1.04497002379e-02
  +1.18187160438e-01
  +2.36315555511e-01
  +3.32136757090e-01
  +3.96083130014e-01
  +4.21691226276e-01
  +4.06385091503e-01
  +3.51707004200e-01
  +2.63189198726e-01
  +1.49694854133e-01
  +2.25789977036e-02
  -1.05528713493e-01
  -2.21841594125e-01
  -3.14738963210e-01
  -3.74972175609e-01
  -3.96505146458e-01
  -3.77197650944e-01
  -3.18968352774e-01
  -2.27637761650e-01
  -1.12309809419e-01
  +1.55065586780e-02
  +1.43045148174e-01
  +2.57612927327e-01
</dep>
<dep _net4.Vt time>
  -9.00000000000e+00
  -9.00000000000e+00
  -9.00000000000e+00
  -9.00000000000e+00
  -9.00000000000e+00
  -9.00000000000e+00
  -9.00000000000e+00
  -9.00000000000e+00
  -9.00000000000e+00
  -9.00000000000e+00
  -9.00000000000e+00
  -9.00000000000e+00
  -9.00000000000e+00
  -9.00000000000e+00
  -9.00000000000e+00
  -9.00000000000e+00
  -9.00000000000e+00
  -9.00000000000e+00
  -9.00000000000e+00
  -9.00000000000e+00
  -9.00000000000e+00
  -9.00000000000e+00
  -9.00000000000e+00
  -9.00000000000e+00
  -9.00000000000e+00
  -9.00000000000e+00
  -9.00000000000e+00
  -9.00000000000e+00
  -9.00000000000e+00
  -9.00000000000e+00
  -9.00000000000e+00
  -9.00000000000e+00
  -9.00000000000e+00
  -9.00000000000e+00
  -9.00000000000e+00
  -9.00000000000e+00
  -9.00000000000e+00
  -9.00000000000e+00
  -9.00000000000e+00
  -9.00000000000e+00
  -9.00000000000e+00
  -9.00000000000e+00
  -9.00000000000e+00
  -9.00000000000e+00
  -9.00000000000e+00
  -9.00000000000e+00
  -9.00000000000e+00
  -9.00000000000e+00
  -9.00000000000e+00
  -9.00000000000e+00
  -9.00000000000e+00
  -9.00000000000e+00
  -9.00000000000e+00
  -9.00000000000e+00
  -9.00000000000e+00
  -9.00000000000e+00
  -9.00000000000e+00
  -9.00000000000e+00
  -9.00000000000e+00
  -9.00000000000e+00
  -9.00000000000e+00
  -9.00000000000e+00
  -9.00000000000e+00
  -9.00000000000e+00
  -9.00000000000e+00
  -9.00000000000e+00
  -9.00000000000e+00
  -9.00000000000e+00
  -9.00000000000e+00
  -9.00000000000e+00
  -9.00000000000e+00
  -9.00000000000e+00
  -9.00000000000e+00
  -9.00000000000e+00
  -9.00000000000e+00
  -9.00000000000e+00
  -9.00000000000e+00
  -9.00000000000e+00
  -9.00000000000e+00
  -9.00000000000e+00
  -9.00000000000e+00
  -9.00000000000e+00
  -9.00000000000e+00
  -9.00000000000e+00
  -9.00000000000e+00
  -9.00000000000e+00
  -9.00000000000e+00
  -9.00000000000e+00
  -9.00000000000e+00
  -9.00000000000e+00
  -9.00000000000e+00
  -9.00000000000e+00
  -9.00000000000e+00
  -9.00000000000e+00
  -9.00000000000e+00
  -9.00000000000e+00
  -9.00000000000e+00
  -9.00000000000e+00
  -9.00000000000e+00
  -9.00000000000e+00
</dep>
<dep _net3.Vt time>
  +9.00000000000e+00
  +9.00000000000e+00
  +9.00000000000e+00
  +9.00000000000e+00
  +9.00000000000e+00
  +9.00000000000e+00
  +9.00000000000e+00
  +9.00000000000e+00
  +9.00000000000e+00
  +9.00000000000e+00
  +9.00000000000e+00
  +9.00000000000e+00
  +9.00000000000e+00
  +9.00000000000e+00
  +9.00000000000e+00
  +9.00000000000e+00
  +9.00000000000e+00
  +9.00000000000e+00
  +9.00000000000e+00
  +9.00000000000e+00
  +9.00000000000e+00
  +9.00000000000e+00
  +9.00000000000e+00
  +9.00000000000e+00
  +9.00000000000e+00
  +9.00000000000e+00
  +9.00000000000e+00
  +9.00000000000e+00
  +9.00000000000e+00
  +9.00000000000e+00
  +9.00000000000e+00
  +9.00000000000e+00
  +9.00000000000e+00
  +9.00000000000e+00
  +9.00000000000e+00
  +9.00000000000e+00
  +9.00000000000e+00
  +9.00000000000e+00
  +9.00000000000e+00
