<Qucs Dataset 0.0.18>
<indep time 100>
  +0.00000000000e+00
  +5.05050505051e-04
  +1.01010101010e-03
  +1.51515151515e-03
  +2.02020202020e-03
  +2.52525252525e-03
  +3.03030303030e-03
  +3.53535353535e-03
  +4.04040404040e-03
  +4.54545454545e-03
  +5.05050505051e-03
  +5.55555555556e-03
  +6.06060606061e-03
  +6.56565656566e-03
  +7.07070707071e-03
  +7.57575757576e-03
  +8.08080808081e-03
  +8.58585858586e-03
  +9.09090909091e-03
  +9.59595959596e-03
  +1.01010101010e-02
  +1.06060606061e-02
  +1.11111111111e-02
  +1.16161616162e-02
  +1.21212121212e-02
  +1.26262626263e-02
  +1.31313131313e-02
  +1.36363636364e-02
  +1.41414141414e-02
  +1.46464646465e-02
  +1.51515151515e-02
  +1.56565656566e-02
  +1.61616161616e-02
  +1.66666666667e-02
  +1.71717171717e-02
  +1.76767676768e-02
  +1.81818181818e-02
  +1.86868686869e-02
  +1.91919191919e-02
  +1.96969696970e-02
  +2.02020202020e-02
  +2.07070707071e-02
  +2.12121212121e-02
  +2.17171717172e-02
  +2.22222222222e-02
  +2.27272727273e-02
  +2.32323232323e-02
  +2.37373737374e-02
  +2.42424242424e-02
  +2.47474747475e-02
  +2.52525252525e-02
  +2.57575757576e-02
  +2.62626262626e-02
  +2.67676767677e-02
  +2.72727272727e-02
  +2.77777777778e-02
  +2.82828282828e-02
  +2.87878787879e-02
  +2.92929292929e-02
  +2.97979797980e-02
  +3.03030303030e-02
  +3.08080808081e-02
  +3.13131313131e-02
  +3.18181818182e-02
  +3.23232323232e-02
  +3.28282828283e-02
  +3.33333333333e-02
  +3.38383838384e-02
  +3.43434343434e-02
  +3.48484848485e-02
  +3.53535353535e-02
  +3.58585858586e-02
  +3.63636363636e-02
  +3.68686868687e-02
  +3.73737373737e-02
  +3.78787878788e-02
  +3.83838383838e-02
  +3.88888888889e-02
  +3.93939393939e-02
  +3.98989898990e-02
  +4.04040404040e-02
  +4.09090909091e-02
  +4.14141414141e-02
  +4.19191919192e-02
  +4.24242424242e-02
  +4.29292929293e-02
  +4.34343434343e-02
  +4.39393939394e-02
  +4.44444444444e-02
  +4.49494949495e-02
  +4.54545454545e-02
  +4.59595959596e-02
  +4.64646464646e-02
  +4.69696969697e-02
  +4.74747474747e-02
  +4.79797979798e-02
  +4.84848484848e-02
  +4.89898989899e-02
  +4.94949494949e-02
  +5.00000000000e-02
</indep>
<dep V1.It time>
  +1.24999992898e-04
  +7.42037309070e-05
  +3.32216372248e-05
  +1.85037720257e-06
  -2.00032927388e-05
  -3.25756139236e-05
  -3.64298203148e-05
  -3.25444893840e-05
  -2.23305494610e-05
  -7.57617064062e-06
  +9.66905864397e-06
  +2.72503920992e-05
  +4.30875032108e-05
  +5.53552083958e-05
  +6.26456060331e-05
  +6.40932681858e-05
  +5.94508974359e-05
  +4.91045348488e-05
  +3.40293182030e-05
  +1.56870709370e-05
  -4.12328544719e-06
  -2.34478657428e-05
  -4.03757982039e-05
  -5.32302998488e-05
  -6.07381064971e-05
  -6.21572957042e-05
  -5.73519990208e-05
  -4.68064524284e-05
  -3.15770053595e-05
  -1.31869091800e-05
  +6.52558625769e-06
  +2.55906422523e-05
  +4.21034194474e-05
  +5.44142041471e-05
  +6.12930799775e-05
  +6.20526957563e-05
  +5.66168140615e-05
  +4.55281345741e-05
  +2.98936604359e-05
  +1.12744826183e-05
  -8.46981891967e-06
  -2.73685441151e-05
  -4.35340983475e-05
  -5.53522591094e-05
  -6.16429193727e-05
  -6.17777900314e-05
  -5.57438076494e-05
  -4.41432667987e-05
  -2.81346473386e-05
  -9.31664774897e-06
  +1.04312976851e-05
  +2.91383079972e-05
  +4.49355418977e-05
  +5.62452629058e-05
  +6.19387574724e-05
  +6.14471067202e-05
  +5.48194128883e-05
  +4.27175378480e-05
  +2.63499584491e-05
  +7.35111119782e-06
  -1.23818165253e-05
  -3.08783349432e-05
  -4.62914202780e-05
  -5.70819541843e-05
  -6.21724164924e-05
  -6.10544838333e-05
  -5.38397895754e-05
  -4.12487473072e-05
  -2.45387306478e-05
  -5.37831756381e-06
  +1.43191526476e-05
  +3.25867344354e-05
  +4.76002976086e-05
  +5.78606014328e-05
  +6.23430758803e-05
  +6.06001126970e-05
  +5.28057596516e-05
  +3.97383429355e-05
  +2.27027452106e-05
  +3.40010213135e-06
  -1.62420886567e-05
  -3.42623834095e-05
  -4.88613483334e-05
  -5.85810612197e-05
  -6.24510153781e-05
  -6.00847928136e-05
  -5.17186203202e-05
  -3.81879567093e-05
  -2.08439148416e-05
  -1.41838772827e-06
  +1.81487064297e-05
  +3.59035030456e-05
  +5.00730499776e-05
  +5.92423385536e-05
  +6.24960707852e-05
  +5.95088838219e-05
  +5.05792869405e-05
  +3.65992568450e-05
  +1.89642156258e-05
  -5.64534888170e-07
</dep>
<dep V2.It time>
  -1.24999998580e-04
  -1.14840746181e-04
  -1.06644327445e-04
  -1.00370075441e-04
  -9.59993414523e-05
  -9.34848772154e-05
  -9.27140359370e-05
  -9.34911021232e-05
  -9.55338901078e-05
  -9.84847658719e-05
  -1.01933811729e-04
  -1.05450078420e-04
  -1.08617500642e-04
  -1.11071041679e-04
  -1.12529121207e-04
  -1.12818653637e-04
  -1.11890179487e-04
  -1.09820906970e-04
  -1.06805863641e-04
  -1.03137414187e-04
  -9.91753429106e-05
  -9.53104268516e-05
  -9.19248403592e-05
  -8.93539400303e-05
  -8.78523787006e-05
  -8.75685408592e-05
  -8.85296001958e-05
  -9.06387095143e-05
  -9.36845989281e-05
  -9.73626181640e-05
  -1.01305117252e-04
  -1.05118128450e-04
  -1.08420683889e-04
  -1.10882840829e-04
  -1.12258615996e-04
  -1.12410539151e-04
  -1.11323362812e-04
  -1.09105626915e-04
  -1.05978732087e-04
  -1.02254896524e-04
  -9.83060362161e-05
  -9.45262911770e-05
  -9.12931803305e-05
  -8.89295481781e-05
  -8.76714161255e-05
  -8.76444419937e-05
  -8.88512384701e-05
  -9.11713466403e-05
  -9.43730705323e-05
  -9.81366704502e-05
  -1.02086259537e-04
  -1.05827661599e-04
  -1.08987108380e-04
  -1.11249052581e-04
  -1.12387751494e-04
  -1.12289421344e-04
  -1.10963882578e-04
  -1.08543507570e-04
  -1.05269991690e-04
  -1.01470222240e-04
  -9.75236366949e-05
  -9.38243330113e-05
  -9.07417159444e-05
  -8.85836091631e-05
  -8.75655167015e-05
  -8.77891032333e-05
  -8.92320420849e-05
  -9.17502505386e-05
  -9.50922538705e-05
  -9.89243364872e-05
  -1.02863830530e-04
  -1.06517346887e-04
  -1.09520059522e-04
  -1.11572120287e-04
  -1.12468615176e-04
  -1.12120022539e-04
  -1.10561151930e-04
  -1.07947668587e-04
  -1.04540549042e-04
  -1.00680020426e-04
  -9.67515822687e-05
  -9.31475233181e-05
  -9.02277303333e-05
  -8.82837877561e-05
  -8.75097969244e-05
  -8.79830414373e-05
  -8.96562759360e-05
  -9.23624086581e-05
  -9.58312170317e-05
  -9.97163224543e-05
  -1.03629741286e-04
  -1.07180700609e-04
  -1.10014609996e-04
  -1.11848467711e-04
  -1.12499214157e-04
  -1.11901776764e-04
  -1.10115857388e-04
  -1.07319851369e-04
  -1.03792843125e-04
  -9.98870930224e-05
</dep>
<dep Vout.Vt time>
  +5.68181785899e-08
  +4.06370152744e-01
  +7.34226902202e-01
  +9.85196982380e-01
  +1.16002634191e+00
  +1.26060491138e+00
  +1.29143856252e+00
  +1.26035591507e+00
  +1.17864439569e+00
  +1.06060936512e+00
  +9.22647530848e-01
  +7.81996863207e-01
  +6.55299974313e-01
  +5.57158332834e-01
  +4.98835151735e-01
  +4.87253854513e-01
  +5.24392820512e-01
  +6.07163721210e-01
  +7.27765454376e-01
  +8.74503432504e-01
  +1.03298628358e+00
  +1.18758292594e+00
  +1.32300638563e+00
  +1.42584239879e+00
  +1.48590485198e+00
  +1.49725836563e+00
  +1.45881599217e+00
  +1.37445161943e+00
  +1.25261604288e+00
  +1.10549527344e+00
  +9.47795309939e-01
  +7.95274861982e-01
  +6.63172644421e-01
  +5.64686366823e-01
  +5.09655360180e-01
  +5.03578433949e-01
  +5.47065487508e-01
  +6.35774923407e-01
  +7.60850716513e-01
  +9.09804139049e-01
  +1.06775855136e+00
  +1.21894835292e+00
  +1.34827278678e+00
  +1.44281807287e+00
  +1.49314335498e+00
  +1.49422232025e+00
  +1.44595046120e+00
  +1.35314613439e+00
  +1.22507717871e+00
  +1.07453318199e+00
  +9.16549618514e-01
  +7.66893536023e-01
  +6.40515664818e-01
  +5.50037896754e-01
  +5.04489940220e-01
  +5.08423146239e-01
  +5.61444696893e-01
  +6.58259697217e-01
  +7.89200332407e-01
  +9.41191110418e-01
  +1.09905453220e+00
  +1.24702667955e+00
  +1.37033136222e+00
  +1.45665563347e+00
  +1.49737933194e+00
  +1.48843587067e+00
  +1.43071831660e+00
  +1.32998997846e+00
  +1.19630984518e+00
  +1.04302654051e+00
  +8.85446778819e-01
  +7.39306124517e-01
  +6.19197619131e-01
  +5.37115188537e-01
  +5.01255392957e-01
  +5.15199098424e-01
  +5.77553922787e-01
  +6.82093256516e-01
  +8.18378038315e-01
  +9.72799182949e-01
  +1.12993670925e+00
  +1.27409906727e+00
  +1.39089078667e+00
  +1.46864848976e+00
  +1.49960812302e+00
  +1.48067834251e+00
  +1.41374896256e+00
  +1.30550365367e+00
  +1.16675131873e+00
  +1.01134710183e+00
  +8.54810348562e-01
  +7.12771975635e-01
  +5.99415600179e-01
  +5.26061291571e-01
  +5.00031433719e-01
  +5.23928929424e-01
  +5.95365704476e-01
  +7.07205945240e-01
  +8.48286274993e-01
  +1.00451627911e+00
</dep>
<dep _net0.Vt time>
  +5.00000000000e+00
  +5.00000000000e+00
  +5.00000000000e+00
  +5.00000000000e+00
  +5.00000000000e+00
  +5.00000000000e+00
  +5.00000000000e+00
  +5.00000000000e+00
  +5.00000000000e+00
  +5.00000000000e+00
  +5.00000000000e+00
  +5.00000000000e+00
  +5.00000000000e+00
  +5.00000000000e+00
  +5.00000000000e+00
  +5.00000000000e+00
  +5.00000000000e+00
  +5.00000000000e+00
  +5.00000000000e+00
  +5.00000000000e+00
  +5.00000000000e+00
  +5.00000000000e+00
  +5.00000000000e+00
  +5.00000000000e+00
  +5.00000000000e+00
  +5.00000000000e+00
  +5.00000000000e+00
  +5.00000000000e+00
  +5.00000000000e+00
  +5.00000000000e+00
  +5.00000000000e+00
  +5.00000000000e+00
  +5.00000000000e+00
  +5.00000000000e+00
  +5.00000000000e+00
  +5.00000000000e+00
  +5.00000000000e+00
  +5.00000000000e+00
  +5.00000000000e+00
  +5.00000000000e+00
  +5.00000000000e+00
  +5.00000000000e+00
  +5.00000000000e+00
  +5.00000000000e+00
  +5.00000000000e+00
  +5.00000000000e+00
  +5.00000000000e+00
  +5.00000000000e+00
  +5.00000000000e+00
  +5.00000000000e+00
  +5.00000000000e+00
  +5.00000000000e+00
  +5.00000000000e+00
  +5.00000000000e+00
  +5.00000000000e+00
  +5.00000000000e+00
  +5.00000000000e+00
  +5.00000000000e+00
  +5.00000000000e+00
  +5.00000000000e+00
  +5.00000000000e+00
  +5.00000000000e+00
  +5.00000000000e+00
  +5.00000000000e+00
  +5.00000000000e+00
  +5.00000000000e+00
  +5.00000000000e+00
  +5.00000000000e+00
  +5.00000000000e+00
  +5.00000000000e+00
  +5.00000000000e+00
  +5.00000000000e+00
  +5.00000000000e+00
  +5.00000000000e+00
  +5.00000000000e+00
  +5.00000000000e+00
  +5.00000000000e+00
  +5.00000000000e+00
  +5.00000000000e+00
  +5.00000000000e+00
  +5.00000000000e+00
  +5.00000000000e+00
  +5.00000000000e+00
  +5.00000000000e+00
  +5.00000000000e+00
  +5.00000000000e+00
  +5.00000000000e+00
  +5.00000000000e+00
  +5.00000000000e+00
  +5.00000000000e+00
  +5.00000000000e+00
  +5.00000000000e+00
  +5.00000000000e+00
  +5.00000000000e+00
  +5.00000000000e+00
  +5.00000000000e+00
  +5.00000000000e+00
  +5.00000000000e+00
  +5.00000000000e+00
  +5.00000000000e+00
</dep>
<dep Vin.Vt time>
  +0.00000000000e+00
  +1.56016722849e-01
  +2.96453964527e-01
  +4.07287976025e-01
  +4.77451120722e-01
  +4.99937063837e-01
  +4.72500409357e-01
  +3.97880920265e-01
  +2.83529931931e-01
  +1.40866278421e-01
  -1.58639667490e-02
  -1.71010071663e-01
  -3.09079493110e-01
  -4.16284927317e-01
  -4.81921079280e-01
  -4.99433669592e-01
  -4.67073930133e-01
  -3.88073232146e-01
  -2.70320408728e-01
  -1.25573993591e-01
  +3.17119598282e-02
  +1.85831227830e-01
  +3.21393804843e-01
  +4.24862714975e-01
  +4.85905784162e-01
  +4.98427387976e-01
  +4.61177147052e-01
  +3.77874787177e-01
  +2.56838695787e-01
  +1.10155266393e-01
  -4.75280216521e-02
  -2.00465267703e-01
  -3.33384500258e-01
  -4.33012701892e-01
  -4.89401223107e-01
  -4.96919232231e-01
  -4.54815997677e-01
  -3.67295854329e-01
  -2.43098368050e-01
  -9.46256221803e-02
  +6.32962267868e-02
  +2.14897456045e-01
  +3.45039505741e-01
  +4.40726681724e-01
  +4.92403876506e-01
  +4.94910720940e-01
  +4.47996887146e-01
  +3.56347085689e-01
  +2.29113260864e-01
  +7.90006979867e-02
  -7.90006979866e-02
  -2.29113260864e-01
  -3.56347085689e-01
  -4.47996887146e-01
  -4.94910720940e-01
  -4.92403876506e-01
  -4.40726681724e-01
  -3.45039505741e-01
  -2.14897456045e-01
  -6.32962267868e-02
  +9.46256221802e-02
  +2.43098368050e-01
  +3.67295854329e-01
  +4.54815997677e-01
  +4.96919232231e-01
  +4.89401223107e-01
  +4.33012701892e-01
  +3.33384500258e-01
  +2.00465267703e-01
  +4.75280216520e-02
  -1.10155266393e-01
  -2.56838695787e-01
  -3.77874787177e-01
  -4.61177147052e-01
  -4.98427387976e-01
  -4.85905784162e-01
  -4.24862714975e-01
  -3.21393804843e-01
  -1.85831227830e-01
  -3.17119598283e-02
  +1.25573993590e-01
  +2.70320408728e-01
  +3.88073232146e-01
  +4.67073930133e-01
  +4.99433669592e-01
  +4.81921079280e-01
  +4.16284927317e-01
  +3.09079493110e-01
  +1.71010071663e-01
  +1.58639667490e-02
  -1.40866278421e-01
  -2.83529931931e-01
  -3.97880920265e-01
  -4.72500409357e-01
  -4.99937063837e-01
  -4.77451120722e-01
  -4.07287976025e-01
  -2.96453964527e-01
  -1.56016722849e-01
  +6.66653524795e-14
</dep>
