<Qucs Dataset 0.0.18>
<indep time 201>
  +0.00000000000e+00
  +2.50000000000e-06
  +5.00000000000e-06
  +7.50000000000e-06
  +1.00000000000e-05
  +1.25000000000e-05
  +1.50000000000e-05
  +1.75000000000e-05
  +2.00000000000e-05
  +2.25000000000e-05
  +2.50000000000e-05
  +2.75000000000e-05
  +3.00000000000e-05
  +3.25000000000e-05
  +3.50000000000e-05
  +3.75000000000e-05
  +4.00000000000e-05
  +4.25000000000e-05
  +4.50000000000e-05
  +4.75000000000e-05
  +5.00000000000e-05
  +5.25000000000e-05
  +5.50000000000e-05
  +5.75000000000e-05
  +6.00000000000e-05
  +6.25000000000e-05
  +6.50000000000e-05
  +6.75000000000e-05
  +7.00000000000e-05
  +7.25000000000e-05
  +7.50000000000e-05
  +7.75000000000e-05
  +8.00000000000e-05
  +8.25000000000e-05
  +8.50000000000e-05
  +8.75000000000e-05
  +9.00000000000e-05
  +9.25000000000e-05
  +9.50000000000e-05
  +9.75000000000e-05
  +1.00000000000e-04
  +1.02500000000e-04
  +1.05000000000e-04
  +1.07500000000e-04
  +1.10000000000e-04
  +1.12500000000e-04
  +1.15000000000e-04
  +1.17500000000e-04
  +1.20000000000e-04
  +1.22500000000e-04
  +1.25000000000e-04
  +1.27500000000e-04
  +1.30000000000e-04
  +1.32500000000e-04
  +1.35000000000e-04
  +1.37500000000e-04
  +1.40000000000e-04
  +1.42500000000e-04
  +1.45000000000e-04
  +1.47500000000e-04
  +1.50000000000e-04
  +1.52500000000e-04
  +1.55000000000e-04
  +1.57500000000e-04
  +1.60000000000e-04
  +1.62500000000e-04
  +1.65000000000e-04
  +1.67500000000e-04
  +1.70000000000e-04
  +1.72500000000e-04
  +1.75000000000e-04
  +1.77500000000e-04
  +1.80000000000e-04
  +1.82500000000e-04
  +1.85000000000e-04
  +1.87500000000e-04
  +1.90000000000e-04
  +1.92500000000e-04
  +1.95000000000e-04
  +1.97500000000e-04
  +2.00000000000e-04
  +2.02500000000e-04
  +2.05000000000e-04
  +2.07500000000e-04
  +2.10000000000e-04
  +2.12500000000e-04
  +2.15000000000e-04
  +2.17500000000e-04
  +2.20000000000e-04
  +2.22500000000e-04
  +2.25000000000e-04
  +2.27500000000e-04
  +2.30000000000e-04
  +2.32500000000e-04
  +2.35000000000e-04
  +2.37500000000e-04
  +2.40000000000e-04
  +2.42500000000e-04
  +2.45000000000e-04
  +2.47500000000e-04
  +2.50000000000e-04
  +2.52500000000e-04
  +2.55000000000e-04
  +2.57500000000e-04
  +2.60000000000e-04
  +2.62500000000e-04
  +2.65000000000e-04
  +2.67500000000e-04
  +2.70000000000e-04
  +2.72500000000e-04
  +2.75000000000e-04
  +2.77500000000e-04
  +2.80000000000e-04
  +2.82500000000e-04
  +2.85000000000e-04
  +2.87500000000e-04
  +2.90000000000e-04
  +2.92500000000e-04
  +2.95000000000e-04
  +2.97500000000e-04
  +3.00000000000e-04
  +3.02500000000e-04
  +3.05000000000e-04
  +3.07500000000e-04
  +3.10000000000e-04
  +3.12500000000e-04
  +3.15000000000e-04
  +3.17500000000e-04
  +3.20000000000e-04
  +3.22500000000e-04
  +3.25000000000e-04
  +3.27500000000e-04
  +3.30000000000e-04
  +3.32500000000e-04
  +3.35000000000e-04
  +3.37500000000e-04
  +3.40000000000e-04
  +3.42500000000e-04
  +3.45000000000e-04
  +3.47500000000e-04
  +3.50000000000e-04
  +3.52500000000e-04
  +3.55000000000e-04
  +3.57500000000e-04
  +3.60000000000e-04
  +3.62500000000e-04
  +3.65000000000e-04
  +3.67500000000e-04
  +3.70000000000e-04
  +3.72500000000e-04
  +3.75000000000e-04
  +3.77500000000e-04
  +3.80000000000e-04
  +3.82500000000e-04
  +3.85000000000e-04
  +3.87500000000e-04
  +3.90000000000e-04
  +3.92500000000e-04
  +3.95000000000e-04
  +3.97500000000e-04
  +4.00000000000e-04
  +4.02500000000e-04
  +4.05000000000e-04
  +4.07500000000e-04
  +4.10000000000e-04
  +4.12500000000e-04
  +4.15000000000e-04
  +4.17500000000e-04
  +4.20000000000e-04
  +4.22500000000e-04
  +4.25000000000e-04
  +4.27500000000e-04
  +4.30000000000e-04
  +4.32500000000e-04
  +4.35000000000e-04
  +4.37500000000e-04
  +4.40000000000e-04
  +4.42500000000e-04
  +4.45000000000e-04
  +4.47500000000e-04
  +4.50000000000e-04
  +4.52500000000e-04
  +4.55000000000e-04
  +4.57500000000e-04
  +4.60000000000e-04
  +4.62500000000e-04
  +4.65000000000e-04
  +4.67500000000e-04
  +4.70000000000e-04
  +4.72500000000e-04
  +4.75000000000e-04
  +4.77500000000e-04
  +4.80000000000e-04
  +4.82500000000e-04
  +4.85000000000e-04
  +4.87500000000e-04
  +4.90000000000e-04
  +4.92500000000e-04
  +4.95000000000e-04
  +4.97500000000e-04
  +5.00000000000e-04
</indep>
<dep Pr_Vout.Vt time>
  +5.81862218138e-01
  +9.73018846118e-01
  +1.05035914968e+00
  +1.12264503425e+00
  +1.18925784921e+00
  +1.24861410301e+00
  +1.29925059535e+00
  +1.33991527819e+00
  +1.36960137739e+00
  +1.38757242373e+00
  +1.39338040958e+00
  +1.38687682308e+00
  +1.36821630555e+00
  +1.33785284421e+00
  +1.29652859661e+00
  +1.24525564154e+00
  +1.18529133517e+00
  +1.11811119675e+00
  +1.04543740258e+00
  +9.70401339872e-01
  +9.11278851401e-01
  +8.96411242525e-01
  +8.96308091237e-01
  +8.97686665408e-01
  +8.99811833515e-01
  +9.02751725972e-01
  +9.06660130968e-01
  +9.11779553477e-01
  +9.18491395305e-01
  +9.27401261851e-01
  +9.39466508193e-01
  +9.56131167873e-01
  +9.79305986069e-01
  +1.01092140107e+00
  +1.05213298145e+00
  +1.10290423820e+00
  +1.16229283193e+00
  +1.22889243515e+00
  +1.30106310159e+00
  +1.37701966223e+00
  +1.45488292419e+00
  +1.53272668713e+00
  +1.60862522946e+00
  +1.68070072938e+00
  +1.74716950334e+00
  +1.80638592623e+00
  +1.85688295211e+00
  +1.89740823778e+00
  +1.92695497960e+00
  +1.94478670436e+00
  +1.95045540368e+00
  +1.94381256547e+00
  +1.92501283078e+00
  +1.89451018603e+00
  +1.85304678436e+00
  +1.80163467136e+00
  +1.74153086511e+00
  +1.67420640429e+00
  +1.60131012627e+00
  +1.52462806728e+00
  +1.44603948429e+00
  +1.36747058172e+00
  +1.29084708687e+00
  +1.21804691686e+00
  +1.15085508219e+00
  +1.09093118424e+00
  +1.03984606179e+00
  +9.99348366814e-01
  +9.71730186207e-01
  +9.58748515947e-01
  +9.59299962081e-01
  +9.70741221959e-01
  +9.91826111988e-01
  +1.02274670788e+00
  +1.06378207277e+00
  +1.11451948633e+00
  +1.17390125709e+00
  +1.24049759408e+00
  +1.31266533341e+00
  +1.38861899231e+00
  +1.46647935471e+00
  +1.54432021891e+00
  +1.62021586321e+00
  +1.69228846584e+00
  +1.75875434323e+00
  +1.81796787027e+00
  +1.86846200103e+00
  +1.90898439230e+00
  +1.93852824044e+00
  +1.95635707225e+00
  +1.96202287934e+00
  +1.95537714962e+00
  +1.93657452415e+00
  +1.90606898933e+00
  +1.86460269832e+00
  +1.81318769670e+00
  +1.75308100255e+00
  +1.68575365456e+00
  +1.61285449009e+00
  +1.53616954537e+00
  +1.45757807737e+00
  +1.37900629039e+00
  +1.30237990976e+00
  +1.22957681827e+00
  +1.16238154904e+00
  +1.10244867814e+00
  +1.05131183060e+00
  +1.01054474647e+00
  +9.82023847599e-01
  +9.67341151720e-01
  +9.66107773591e-01
  +9.76366583129e-01
  +9.96886402515e-01
  +1.02760521820e+00
  +1.06858798942e+00
  +1.11931497765e+00
  +1.17869437960e+00
  +1.24528940964e+00
  +1.31745594333e+00
  +1.39340840427e+00
  +1.47126756945e+00
  +1.54910723674e+00
  +1.62500168444e+00
  +1.69707309076e+00
  +1.76353777215e+00
  +1.82275010348e+00
  +1.87324303883e+00
  +1.91376423498e+00
  +1.94330688831e+00
  +1.96113452561e+00
  +1.96679913849e+00
  +1.96015221485e+00
  +1.94134839576e+00
  +1.91084166763e+00
  +1.86937418360e+00
  +1.81795798925e+00
  +1.75785010269e+00
  +1.69052156257e+00
  +1.61762120626e+00
  +1.54093507002e+00
  +1.46234241078e+00
  +1.38376943284e+00
  +1.30714186091e+00
  +1.23433756751e+00
  +1.16714094291e+00
  +1.10720505875e+00
  +1.05605237709e+00
  +1.01520352044e+00
  +9.86400977066e-01
  +9.71151464562e-01
  +9.69267795705e-01
  +9.79060714559e-01
  +9.99347007803e-01
  +1.02998058023e+00
  +1.07094091458e+00
  +1.12166338601e+00
  +1.18104170240e+00
  +1.24763609931e+00
  +1.31980204307e+00
  +1.39575391736e+00
  +1.47361249623e+00
  +1.55145157736e+00
  +1.62734543904e+00
  +1.69941625950e+00
  +1.76588035517e+00
  +1.82509210093e+00
  +1.87558445085e+00
  +1.91610506172e+00
  +1.94564712992e+00
  +1.96347418223e+00
  +1.96913821027e+00
  +1.96249070194e+00
  +1.94368629830e+00
  +1.91317898577e+00
  +1.87171091748e+00
  +1.82029413902e+00
  +1.76018566849e+00
  +1.69285654455e+00
  +1.61995560458e+00
  +1.54326888480e+00
  +1.46467564218e+00
  +1.38610208099e+00
  +1.30947392569e+00
  +1.23666904442e+00
  +1.16947176650e+00
  +1.10953452187e+00
  +1.05837500770e+00
  +1.01749108104e+00
  +9.88566687803e-01
  +9.73066193766e-01
  +9.70884765487e-01
  +9.80457582626e-01
  +1.00063130987e+00
  +1.03122339534e+00
  +1.07217275963e+00
  +1.12289300440e+00
  +1.18227076991e+00
  +1.24886483694e+00
  +1.32103047193e+00
  +1.39698203905e+00
  +1.47484031092e+00
</dep>
<dep Pr_Vin.Vt time>
  +0.00000000000e+00
  +7.82172325201e-02
  +1.54508497187e-01
  +2.26995249870e-01
  +2.93892626146e-01
  +3.53553390593e-01
  +4.04508497187e-01
  +4.45503262094e-01
  +4.75528258148e-01
  +4.93844170298e-01
  +5.00000000000e-01
  +4.93844170298e-01
  +4.75528258148e-01
  +4.45503262094e-01
  +4.04508497187e-01
  +3.53553390593e-01
  +2.93892626146e-01
  +2.26995249870e-01
  +1.54508497187e-01
  +7.82172325201e-02
  -7.63278329430e-17
  -7.82172325201e-02
  -1.54508497187e-01
  -2.26995249870e-01
  -2.93892626146e-01
  -3.53553390593e-01
  -4.04508497187e-01
  -4.45503262094e-01
  -4.75528258148e-01
  -4.93844170298e-01
  -5.00000000000e-01
  -4.93844170298e-01
  -4.75528258148e-01
  -4.45503262094e-01
  -4.04508497187e-01
  -3.53553390593e-01
  -2.93892626146e-01
  -2.26995249870e-01
  -1.54508497187e-01
  -7.82172325201e-02
  +2.26252664607e-16
  +7.82172325201e-02
  +1.54508497187e-01
  +2.26995249870e-01
  +2.93892626146e-01
  +3.53553390593e-01
  +4.04508497187e-01
  +4.45503262094e-01
  +4.75528258148e-01
  +4.93844170298e-01
  +5.00000000000e-01
  +4.93844170298e-01
  +4.75528258148e-01
  +4.45503262094e-01
  +4.04508497187e-01
  +3.53553390593e-01
  +2.93892626146e-01
  +2.26995249870e-01
  +1.54508497187e-01
  +7.82172325201e-02
  -5.80962957863e-16
  -7.82172325201e-02
  -1.54508497187e-01
  -2.26995249870e-01
  -2.93892626146e-01
  -3.53553390593e-01
  -4.04508497187e-01
  -4.45503262094e-01
  -4.75528258148e-01
  -4.93844170298e-01
  -5.00000000000e-01
  -4.93844170298e-01
  -4.75528258148e-01
  -4.45503262094e-01
  -4.04508497187e-01
  -3.53553390593e-01
  -2.93892626146e-01
  -2.26995249870e-01
  -1.54508497187e-01
  -7.82172325201e-02
  +7.54611488313e-16
  +7.82172325201e-02
  +1.54508497187e-01
  +2.26995249870e-01
  +2.93892626146e-01
  +3.53553390593e-01
  +4.04508497187e-01
  +4.45503262094e-01
  +4.75528258148e-01
  +4.93844170298e-01
  +5.00000000000e-01
  +4.93844170298e-01
  +4.75528258148e-01
  +4.45503262094e-01
  +4.04508497187e-01
  +3.53553390593e-01
  +2.93892626146e-01
  +2.26995249870e-01
  +1.54508497187e-01
  +7.82172325201e-02
  +1.86381129714e-16
  -7.82172325201e-02
  -1.54508497187e-01
  -2.26995249870e-01
  -2.93892626146e-01
  -3.53553390593e-01
  -4.04508497187e-01
  -4.45503262094e-01
  -4.75528258148e-01
  -4.93844170298e-01
  -5.00000000000e-01
  -4.93844170298e-01
  -4.75528258148e-01
  -4.45503262094e-01
  -4.04508497187e-01
  -3.53553390593e-01
  -2.93892626146e-01
  -2.26995249870e-01
  -1.54508497187e-01
  -7.82172325201e-02
  +1.23131485476e-15
  +7.82172325201e-02
  +1.54508497187e-01
  +2.26995249870e-01
  +2.93892626146e-01
  +3.53553390593e-01
  +4.04508497187e-01
  +4.45503262094e-01
  +4.75528258148e-01
  +4.93844170298e-01
  +5.00000000000e-01
  +4.93844170298e-01
  +4.75528258148e-01
  +4.45503262094e-01
  +4.04508497187e-01
  +3.53553390593e-01
  +2.93892626146e-01
  +2.26995249870e-01
  +1.54508497187e-01
  +7.82172325201e-02
  -1.23089472642e-15
  -7.82172325201e-02
  -1.54508497187e-01
  -2.26995249870e-01
  -2.93892626146e-01
  -3.53553390593e-01
  -4.04508497187e-01
  -4.45503262094e-01
  -4.75528258148e-01
  -4.93844170298e-01
  -5.00000000000e-01
  -4.93844170298e-01
  -4.75528258148e-01
  -4.45503262094e-01
  -4.04508497187e-01
  -3.53553390593e-01
  -2.93892626146e-01
  -2.26995249870e-01
  -1.54508497187e-01
  -7.82172325201e-02
  +1.26256020612e-15
  +7.82172325201e-02
  +1.54508497187e-01
  +2.26995249870e-01
  +2.93892626146e-01
  +3.53553390593e-01
  +4.04508497187e-01
  +4.45503262094e-01
  +4.75528258148e-01
  +4.93844170298e-01
  +5.00000000000e-01
  +4.93844170298e-01
  +4.75528258148e-01
  +4.45503262094e-01
  +4.04508497187e-01
  +3.53553390593e-01
  +2.93892626146e-01
  +2.26995249870e-01
  +1.54508497187e-01
  +7.82172325201e-02
  -1.28032079296e-15
  -7.82172325201e-02
  -1.54508497187e-01
  -2.26995249870e-01
  -2.93892626146e-01
  -3.53553390593e-01
  -4.04508497187e-01
  -4.45503262094e-01
  -4.75528258148e-01
  -4.93844170298e-01
  -5.00000000000e-01
  -4.93844170298e-01
  -4.75528258148e-01
  -4.45503262094e-01
  -4.04508497187e-01
  -3.53553390593e-01
  -2.93892626146e-01
  -2.26995249870e-01
  -1.54508497187e-01
  -7.82172325201e-02
  -5.95620015982e-16
</dep>
<dep Pr_C1.Vt time>
  +5.81862218138e-01
  +8.94801613598e-01
  +8.95850652488e-01
  +8.95649784385e-01
  +8.95365223061e-01
  +8.95060712421e-01
  +8.94742098165e-01
  +8.94412016094e-01
  +8.94073119245e-01
  +8.93728253434e-01
  +8.93380409579e-01
  +8.93032652786e-01
  +8.92688047402e-01
  +8.92349582118e-01
  +8.92020099425e-01
  +8.91702250943e-01
  +8.91398709022e-01
  +8.91115946882e-01
  +8.90928905391e-01
  +8.92184107352e-01
  +9.11278851401e-01
  +9.74628475045e-01
  +1.05081658842e+00
  +1.12468191528e+00
  +1.19370445966e+00
  +1.25630511657e+00
  +1.31116862816e+00
  +1.35728281557e+00
  +1.39401965345e+00
  +1.42124543215e+00
  +1.43946650819e+00
  +1.44997533817e+00
  +1.45483424422e+00
  +1.45642466317e+00
  +1.45664147864e+00
  +1.45645762879e+00
  +1.45618545807e+00
  +1.45588768502e+00
  +1.45557159878e+00
  +1.45523689475e+00
  +1.45488292419e+00
  +1.45450945461e+00
  +1.45411673227e+00
  +1.45370547951e+00
  +1.45327687720e+00
  +1.45283253564e+00
  +1.45237445493e+00
  +1.45190497569e+00
  +1.45142672145e+00
  +1.45094253406e+00
  +1.45045540368e+00
  +1.44996839518e+00
  +1.44948457264e+00
  +1.44900692394e+00
  +1.44853828718e+00
  +1.44808128076e+00
  +1.44763823896e+00
  +1.44721115442e+00
  +1.44680162908e+00
  +1.44641083476e+00
  +1.44603948429e+00
  +1.44568781424e+00
  +1.44535558406e+00
  +1.44504216673e+00
  +1.44474770833e+00
  +1.44448457483e+00
  +1.44435455898e+00
  +1.44485162891e+00
  +1.44725844435e+00
  +1.45259268624e+00
  +1.45929996208e+00
  +1.46458539226e+00
  +1.46735437014e+00
  +1.46824996997e+00
  +1.46829056996e+00
  +1.46807287693e+00
  +1.46779388324e+00
  +1.46749284395e+00
  +1.46717383059e+00
  +1.46683622483e+00
  +1.46647935471e+00
  +1.46610298639e+00
  +1.46570736602e+00
  +1.46529321597e+00
  +1.46486171709e+00
  +1.46441447968e+00
  +1.46395350384e+00
  +1.46348113020e+00
  +1.46299998229e+00
  +1.46251290195e+00
  +1.46202287934e+00
  +1.46153297932e+00
  +1.46104626600e+00
  +1.46056572724e+00
  +1.46009420114e+00
  +1.45963430610e+00
  +1.45918837641e+00
  +1.45875840469e+00
  +1.45834599290e+00
  +1.45795231285e+00
  +1.45757807737e+00
  +1.45722352291e+00
  +1.45688840695e+00
  +1.45657206814e+00
  +1.45627417518e+00
  +1.45600206873e+00
  +1.45582032779e+00
  +1.45604800856e+00
  +1.45755210575e+00
  +1.46118532202e+00
  +1.46610777359e+00
  +1.47021075343e+00
  +1.47241466066e+00
  +1.47310848029e+00
  +1.47309648660e+00
  +1.47286836824e+00
  +1.47258700575e+00
  +1.47228465951e+00
  +1.47196444052e+00
  +1.47162563679e+00
  +1.47126756945e+00
  +1.47089000422e+00
  +1.47049318725e+00
  +1.47007784089e+00
  +1.46964514600e+00
  +1.46919671289e+00
  +1.46873454164e+00
  +1.46826097289e+00
  +1.46777863017e+00
  +1.46729035531e+00
  +1.46679913849e+00
  +1.46630804456e+00
  +1.46582013761e+00
  +1.46533840554e+00
  +1.46486568641e+00
  +1.46440459866e+00
  +1.46395747654e+00
  +1.46352631270e+00
  +1.46311270908e+00
  +1.46271783750e+00
  +1.46234241078e+00
  +1.46198666536e+00
  +1.46165035810e+00
  +1.46133281738e+00
  +1.46103356905e+00
  +1.46075844934e+00
  +1.46056087427e+00
  +1.46070678253e+00
  +1.46192923521e+00
  +1.46499563486e+00
  +1.46926779571e+00
  +1.47290488486e+00
  +1.47487526595e+00
  +1.47548384232e+00
  +1.47544941176e+00
  +1.47521677660e+00
  +1.47493432855e+00
  +1.47463134918e+00
  +1.47431054026e+00
  +1.47397114988e+00
  +1.47361249623e+00
  +1.47323434484e+00
  +1.47283694185e+00
  +1.47242100963e+00
  +1.47198772902e+00
  +1.47153871033e+00
  +1.47107595366e+00
  +1.47060179963e+00
  +1.47011887178e+00
  +1.46963001193e+00
  +1.46913821027e+00
  +1.46864653164e+00
  +1.46815804015e+00
  +1.46767572367e+00
  +1.46720242029e+00
  +1.46674074843e+00
  +1.46629304234e+00
  +1.46586129468e+00
  +1.46544710739e+00
  +1.46505165228e+00
  +1.46467564218e+00
  +1.46431931351e+00
  +1.46398242288e+00
  +1.46366429429e+00
  +1.46336439265e+00
  +1.46308791246e+00
  +1.46288350489e+00
  +1.46299434313e+00
  +1.46409494595e+00
  +1.46691036406e+00
  +1.47088476549e+00
  +1.47430175292e+00
  +1.47615956802e+00
  +1.47672665744e+00
  +1.47668125681e+00
  +1.47644639499e+00
  +1.47616339606e+00
  +1.47586008681e+00
  +1.47553896912e+00
  +1.47519927157e+00
  +1.47484031092e+00
</dep>
<dep Vin.It time>
  +2.90931109069e+05
  +7.32358043842e-02
  -1.33073290316e-03
  -5.37392631198e-03
  -5.92803322310e-03
  -6.24129848775e-03
  -6.49593562752e-03
  -6.69958234687e-03
  -6.84793072740e-03
  -6.93791302426e-03
  -6.96683595740e-03
  -6.93443463827e-03
  -6.84100412635e-03
  -6.68926525916e-03
  -6.48229631223e-03
  -6.22425125761e-03
  -5.90518206162e-03
  -5.30537214198e-03
  -4.83845281019e-04
  +8.15706333367e-02
  +8.46269671207e-01
  +1.50770418873e+00
  +1.51375059868e+00
  +1.43490377045e+00
  +1.32130081117e+00
  +1.17877290319e+00
  +1.01272625651e+00
  +8.29946807256e-01
  +6.39095720387e-01
  +4.51396172048e-01
  +2.81265510406e-01
  +1.45310710048e-01
  +5.63437186483e-02
  +1.29722541255e-02
  -1.59961822151e-03
  -5.00091629512e-03
  -5.75976414258e-03
  -6.14059398796e-03
  -6.50501584734e-03
  -6.88514534955e-03
  -7.27435511968e-03
  -7.66369311022e-03
  -8.04306718151e-03
  -8.40356326504e-03
  -8.73578846643e-03
  -9.03198916325e-03
  -9.28435562363e-03
  -9.48710063352e-03
  -9.63471567278e-03
  -9.72399287760e-03
  -9.75221770389e-03
  -9.71912209359e-03
  -9.62500474993e-03
  -9.47261010731e-03
  -9.26517442929e-03
  -9.00823244588e-03
  -8.70759474546e-03
  -8.37109102318e-03
  -8.00649096142e-03
  -7.62319920658e-03
  -7.23013677618e-03
  -6.83739327133e-03
  -6.45381801308e-03
  -6.08431792481e-03
  -5.67383670891e-03
  -4.63847466838e-03
  +6.89390764795e-04
  +2.32090848796e-02
  +7.72340469559e-02
  +1.30845773361e-01
  +1.27980465463e-01
  +8.04401520564e-02
  +3.27727623640e-02
  +6.29567420534e-03
  -2.98591780749e-03
  -5.24489992552e-03
  -5.83648773980e-03
  -6.20004044072e-03
  -6.56311409439e-03
  -6.94314660458e-03
  -7.33233749214e-03
  -7.72166077510e-03
  -8.10102034692e-03
  -8.46150194438e-03
  -8.79371266356e-03
  -9.08989888167e-03
  -9.34225086679e-03
  -9.54498140514e-03
  -9.69258197632e-03
  -9.78184471669e-03
  -9.81005508214e-03
  -9.77694501468e-03
  -9.68281321737e-03
  -9.53040412478e-03
  -9.32295400041e-03
  -9.06599757439e-03
  -8.76534543509e-03
  -8.42882727768e-03
  -8.06421278530e-03
  -7.68090661758e-03
  -7.28783006699e-03
  -6.89507846582e-03
  -6.51161082520e-03
  -6.14411748434e-03
  -5.76038362843e-03
  -4.98950561867e-03
  -1.47735934638e-03
  +1.32387063358e-02
  +5.02187372346e-02
  +9.24461693588e-02
  +9.72062377184e-02
  +6.37326647394e-02
  +2.60397043261e-02
  +4.31657796567e-03
  -3.40571594166e-03
  -5.32436971244e-03
  -5.86603122777e-03
  -6.22442373794e-03
  -6.58709315051e-03
  -6.96709503887e-03
  -7.35627863073e-03
  -7.74559586559e-03
  -8.12494945159e-03
  -8.48542506780e-03
  -8.81762980710e-03
  -9.11381004704e-03
  -9.36615605523e-03
  -9.56888061825e-03
  -9.71647521542e-03
  -9.80573198344e-03
  -9.83393637782e-03
  -9.80082034103e-03
  -9.70668257563e-03
  -9.55426751672e-03
  -9.34681142725e-03
  -9.08984903796e-03
  -8.78919093663e-03
  -8.45266681905e-03
  -8.08804636798e-03
  -7.70473424756e-03
  -7.31165183208e-03
